date Tue Jan 24 01:04:07.005535 PM 2023
base hex  timestamps absolute
internal events logged
Begin Triggerblock Tue Jan 24 01:04:07.013 PM 2023
 0.000000 Start of measurement
 0.000000 1  70              Rx   d 8 24 00 02 57 01 09 00 67
 0.003658 1  220             Rx   d 8 00 0B 08 00 00 00 00 48
 0.008894 1  108             Rx   d 7 05 25 18 1B 09 0F 4F
 0.010942 1  430             Rx   d 2 04 18
 0.013626 1  460             Rx   d 5 00 42 42 09 2D
 0.016437 1  370             Rx   d 4 48 98 18 00
 0.026281 1  621             Rx   d 8 00 40 00 00 00 00 00 00
 0.029702 1  320             Rx   d 7 10 00 00 00 01 20 00
 0.037013 1  140             Rx   d 5 00 7E 3D 80 E1
 0.043821 1  135             Rx   d 1 00
 0.046575 1  60              Rx   d 3 00 A0 72
 0.049022 1  535             Rx   d 4 00 05 E3 7B
 0.086001 1  130             Rx   d 1 00
 0.092008 1  330             Rx   d 4 01 10 01 00
 0.096413 1  60              Rx   d 3 00 A0 6F
 0.100041 1  70              Rx   d 8 24 00 02 56 01 38 00 7B
 0.103800 1  220             Rx   d 8 00 0C 50 00 00 00 00 48
 0.107329 1  108             Rx   d 7 05 24 18 0D 09 07 4D
 0.116456 1  460             Rx   d 5 00 42 42 08 2B
 0.125902 1  621             Rx   d 8 00 40 00 00 00 00 00 00
 0.136968 1  140             Rx   d 5 00 7E 5D 81 02
 0.139544 1  91              Rx   d 4 00 20 00 00
 0.143815 1  135             Rx   d 1 00
 0.146391 1  60              Rx   d 3 00 A0 6F
 0.148878 1  535             Rx   d 4 00 05 E8 7C
 0.176649 1  160             Rx   d 4 10 20 2C 2C
 0.178834 1  170             Rx   d 3 00 62 7A
 0.185833 1  130             Rx   d 1 00
 0.196445 1  60              Rx   d 3 00 A0 70
 0.200041 1  70              Rx   d 8 24 00 02 5B 01 62 00 AE
 0.203704 1  220             Rx   d 8 00 0D 10 00 00 00 00 48
 0.207270 1  108             Rx   d 7 05 24 17 B5 09 13 47
 0.225955 1  621             Rx   d 8 00 40 00 00 00 00 00 00
 0.236837 1  140             Rx   d 5 00 7E 7D 81 25
 0.243834 1  135             Rx   d 1 00
 0.246318 1  60              Rx   d 3 00 A0 71
 0.248809 1  535             Rx   d 4 00 05 EE 80
 0.259974 1  350             Rx   d 5 20 00 00 00 40
 0.263638 1  210             Rx   d 8 00 C0 00 06 18 04 00 00
 0.266644 1  520             Rx   d 6 17 01 18 08 04 22
 0.285745 1  130             Rx   d 1 00
 0.297621 1  70              Rx   d 8 24 00 02 60 01 77 00 8B
 0.299358 1  90              Rx   d 1 27
 0.303018 1  220             Rx   d 8 00 0D B8 00 00 00 00 48
 0.306084 1  460             Rx   d 5 00 42 42 07 28
 0.309288 1  108             Rx   d 7 05 24 17 84 09 22 45
 0.311302 1  430             Rx   d 2 04 18
 0.325815 1  621             Rx   d 8 00 40 00 00 00 00 00 00
 0.336821 1  140             Rx   d 5 00 7E 9D 81 48
 0.343843 1  135             Rx   d 1 00
 0.346782 1  535             Rx   d 4 00 05 F3 80
 0.373006 1  400             Rx   d 3 09 00 5C
 0.385873 1  130             Rx   d 1 00
 0.397506 1  70              Rx   d 8 24 00 02 63 01 89 00 99
 0.401164 1  220             Rx   d 8 00 0E 20 00 00 00 00 48
 0.407194 1  108             Rx   d 7 05 25 17 9F 09 35 47
 0.425845 1  621             Rx   d 8 00 40 00 00 00 00 00 00
 0.436698 1  140             Rx   d 5 00 7E BD 81 6C
 0.443871 1  135             Rx   d 1 00
 0.446660 1  535             Rx   d 4 00 05 F9 80
 0.486002 1  130             Rx   d 1 00
 0.497519 1  70              Rx   d 8 24 00 02 6A 01 92 00 7C
 0.501175 1  220             Rx   d 8 00 0E 50 00 00 00 00 48
 0.507233 1  108             Rx   d 7 05 2D 17 C3 09 45 48
 0.509945 1  460             Rx   d 5 00 42 42 06 26
 0.514891 1  450             Rx   d 8 00 00 BA 69 2C 00 00 00
 0.525807 1  621             Rx   d 8 00 40 00 00 00 00 00 00
 0.536786 1  140             Rx   d 5 00 7E DB 81 8F
 0.543873 1  135             Rx   d 1 00
 0.546799 1  535             Rx   d 4 00 06 00 7F
 0.585638 1  130             Rx   d 1 00
 0.597419 1  70              Rx   d 8 24 00 02 73 01 9E 00 9E
 0.607138 1  108             Rx   d 7 05 2D 18 39 09 49 4E
 0.625670 1  621             Rx   d 8 00 40 00 00 00 00 00 00
 0.636864 1  140             Rx   d 5 00 7E FB 81 B3
 0.643907 1  135             Rx   d 1 00
 0.646552 1  535             Rx   d 4 00 06 06 80
 0.657518 1  220             Rx   d 8 00 0E 48 00 00 00 00 48
 0.685497 1  130             Rx   d 1 00
 0.697501 1  70              Rx   d 8 24 00 02 7B 01 AA 00 80
 0.702295 1  445             Rx   d 4 00 4F 4F FF
 0.705898 1  460             Rx   d 5 00 42 42 05 23
 0.709086 1  108             Rx   d 7 05 2D 19 0D 09 7F 52
 0.725630 1  621             Rx   d 8 00 40 00 00 00 00 00 00
 0.736546 1  140             Rx   d 5 00 7F 1B 81 D9
 0.743898 1  135             Rx   d 1 00
 0.746444 1  535             Rx   d 4 00 06 0C 80
 0.757425 1  220             Rx   d 8 00 0E 18 00 00 00 00 48
 0.785547 1  130             Rx   d 1 00
 0.797484 1  70              Rx   d 8 24 00 02 80 01 A4 00 9D
 0.806931 1  108             Rx   d 7 05 2D 19 40 09 8E 52
 0.825548 1  621             Rx   d 8 00 40 00 00 00 00 00 00
 0.836589 1  140             Rx   d 5 00 7F 3C 81 FD
 0.843938 1  135             Rx   d 1 00
 0.846455 1  535             Rx   d 4 00 06 13 7F
 0.857642 1  220             Rx   d 8 00 0D F0 00 00 00 00 48
 0.885381 1  130             Rx   d 1 00
 0.892551 1  180             Rx   d 5 00 00 00 00 00
 0.894881 1  183             Rx   d 3 43 FF FF
 0.898499 1  70              Rx   d 8 24 00 02 89 01 98 00 A3
 0.903152 1  150             Rx   d 1 00
 0.906840 1  108             Rx   d 7 05 2D 19 59 09 9E 52
 0.925493 1  621             Rx   d 8 00 40 00 00 00 00 00 00
 0.935066 1  460             Rx   d 5 00 42 42 05 23
 0.937827 1  140             Rx   d 5 00 7F 5E 82 22
 0.943948 1  135             Rx   d 1 00
 0.946435 1  535             Rx   d 4 00 06 1A 7C
 0.957387 1  220             Rx   d 8 00 0D D8 00 00 00 00 48
 0.985513 1  130             Rx   d 1 00
 0.997280 1  70              Rx   d 8 24 00 02 95 01 A3 00 8D
 1.006910 1  108             Rx   d 7 05 2D 19 7B 09 C4 52
 1.025469 1  621             Rx   d 8 00 40 00 00 00 00 00 00
 1.036470 1  140             Rx   d 5 00 7F 7F 82 47
 1.044154 1  135             Rx   d 1 00
 1.046642 1  535             Rx   d 4 00 06 21 7C
 1.053076 1  320             Rx   d 7 10 00 00 00 01 20 00
 1.057395 1  220             Rx   d 8 00 0D C0 00 00 00 00 48
 1.085428 1  130             Rx   d 1 00
 1.097150 1  70              Rx   d 8 24 00 02 99 01 A2 00 9E
 1.107019 1  108             Rx   d 7 05 2D 19 BF 09 EF 52
 1.117387 1  330             Rx   d 4 01 10 01 00
 1.125418 1  621             Rx   d 8 00 40 00 00 00 00 00 00
 1.135973 1  60              Rx   d 3 00 A0 71
 1.138761 1  140             Rx   d 5 00 7F A0 82 6E
 1.141642 1  350             Rx   d 5 20 00 00 00 40
 1.144197 1  91              Rx   d 4 00 20 00 00
 1.145938 1  135             Rx   d 1 00
 1.148483 1  535             Rx   d 4 00 06 27 7F
 1.157521 1  220             Rx   d 8 00 0D A8 00 00 00 00 48
 1.176139 1  160             Rx   d 4 10 20 2C 2C
 1.178326 1  170             Rx   d 3 00 62 7A
 1.185321 1  130             Rx   d 1 00
 1.197132 1  70              Rx   d 8 24 00 02 A4 01 A7 00 86
 1.206830 1  108             Rx   d 7 05 2D 19 FC 0A 0A 52
 1.225456 1  621             Rx   d 8 00 40 00 00 00 00 00 00
 1.236306 1  140             Rx   d 5 00 7F C2 82 94
 1.244192 1  135             Rx   d 1 00
 1.246694 1  535             Rx   d 4 00 06 2E 80
 1.257456 1  220             Rx   d 8 00 0D 80 00 00 00 00 48
 1.263518 1  210             Rx   d 8 00 C0 00 06 18 04 00 00
 1.266647 1  340             Rx   d 6 20 00 0C 00 71 80
 1.269617 1  520             Rx   d 6 17 01 18 08 04 23
 1.285369 1  130             Rx   d 1 00
 1.297035 1  70              Rx   d 8 24 00 02 AB 01 A5 00 A3
 1.306768 1  108             Rx   d 7 05 2D 1A 3C 0A 2C 52
 1.325326 1  621             Rx   d 8 00 40 00 00 00 00 00 00
 1.336363 1  140             Rx   d 5 00 7F E4 82 BB
 1.338372 1  430             Rx   d 2 04 18
 1.344199 1  135             Rx   d 1 00
 1.346742 1  535             Rx   d 4 00 06 36 80
 1.357183 1  220             Rx   d 8 00 0D 20 00 00 00 00 48
 1.373084 1  400             Rx   d 3 09 00 5C
 1.385201 1  130             Rx   d 1 00
 1.397015 1  70              Rx   d 8 24 00 02 B2 01 9F 00 AD
 1.406642 1  108             Rx   d 7 05 2D 1A 6D 0A 34 51
 1.425411 1  621             Rx   d 8 00 40 00 00 00 00 00 00
 1.436237 1  140             Rx   d 5 00 80 08 82 E3
 1.444218 1  135             Rx   d 1 00
 1.446706 1  535             Rx   d 4 00 06 36 7F
 1.457172 1  220             Rx   d 8 00 0C C0 00 00 00 00 48
 1.472395 1  445             Rx   d 4 00 4F 4E FF
 1.485105 1  130             Rx   d 1 00
 1.496979 1  70              Rx   d 8 24 00 02 BD 01 96 00 91
 1.506697 1  108             Rx   d 7 05 2D 1A A0 0A 76 51
 1.514981 1  450             Rx   d 8 00 00 BA 69 2C 00 00 00
 1.525414 1  621             Rx   d 8 00 40 00 00 00 00 00 00
 1.536122 1  140             Rx   d 5 00 80 2C 83 0B
 1.544254 1  135             Rx   d 1 00
 1.546775 1  535             Rx   d 4 00 06 44 80
 1.557147 1  220             Rx   d 8 00 0C 50 00 00 00 00 48
 1.585248 1  130             Rx   d 1 00
 1.591105 1  350             Rx   d 5 20 00 00 00 00
 1.596948 1  70              Rx   d 8 24 00 02 C1 01 8D 00 97
 1.606516 1  108             Rx   d 7 05 2D 1A C5 0A 89 51
 1.625101 1  621             Rx   d 8 00 40 00 00 00 00 00 00
 1.632519 1  445             Rx   d 4 00 4F 4F FF
 1.635639 1  60              Rx   d 3 00 A0 72
 1.638493 1  140             Rx   d 5 00 80 50 83 34
 1.644252 1  135             Rx   d 1 00
 1.646740 1  535             Rx   d 4 00 06 4A 81
 1.657028 1  220             Rx   d 8 00 0B B8 00 00 00 00 48
 1.685035 1  130             Rx   d 1 00
 1.696996 1  70              Rx   d 8 24 00 02 CA 01 82 00 94
 1.706643 1  108             Rx   d 7 05 2D 1A D8 0A A8 51
 1.725098 1  621             Rx   d 8 00 40 00 00 00 00 00 00
 1.732517 1  445             Rx   d 4 00 4F 4F FF
 1.736051 1  140             Rx   d 5 00 80 74 83 5C
 1.744274 1  135             Rx   d 1 00
 1.746758 1  535             Rx   d 4 00 06 52 81
 1.757139 1  220             Rx   d 8 00 0A F0 00 00 00 00 48
 1.785086 1  130             Rx   d 1 00
 1.796785 1  70              Rx   d 8 24 00 02 D3 01 6D 00 6B
 1.806496 1  108             Rx   d 7 05 2D 1B 0E 0A E2 50
 1.825109 1  621             Rx   d 8 00 40 00 00 00 00 00 00
 1.836263 1  140             Rx   d 5 00 80 98 83 85
 1.844273 1  135             Rx   d 1 00
 1.846761 1  535             Rx   d 4 00 06 59 7F
 1.856867 1  220             Rx   d 8 00 0A 50 00 00 00 00 48
 1.872450 1  445             Rx   d 4 00 4F 4E FF
 1.885399 1  60              Rx   d 3 00 A0 71
 1.887138 1  130             Rx   d 1 00
 1.890200 1  180             Rx   d 5 00 00 00 00 00
 1.892516 1  183             Rx   d 3 43 FF FF
 1.896811 1  70              Rx   d 8 24 00 02 DD 01 55 00 7F
 1.903231 1  150             Rx   d 1 00
 1.906557 1  108             Rx   d 7 05 2D 1B 50 0A F9 50
 1.925118 1  621             Rx   d 8 00 40 00 00 00 00 00 00
 1.935320 1  460             Rx   d 5 00 42 42 05 23
 1.937589 1  60              Rx   d 3 00 A0 71
 1.944319 1  135             Rx   d 1 00
 1.947108 1  140             Rx   d 5 00 80 BD 83 AF
 1.949687 1  535             Rx   d 4 00 06 60 7D
 1.957001 1  220             Rx   d 8 00 09 98 00 00 00 00 48
 1.985443 1  62A             Rx   d 8 00 08 00 00 00 00 00 00
 1.987179 1  130             Rx   d 1 00
 1.996634 1  70              Rx   d 8 24 00 02 E2 01 4D 00 54
 2.006349 1  108             Rx   d 7 05 2D 1B 6B 0B 05 4F
 2.025059 1  621             Rx   d 8 00 40 00 00 00 00 00 00
 2.044303 1  135             Rx   d 1 00
 2.047122 1  140             Rx   d 5 00 80 E5 83 D8
 2.049632 1  535             Rx   d 4 00 06 67 7C
 2.056843 1  220             Rx   d 8 00 08 F0 00 00 00 00 48
 2.064609 1  625             Rx   d 8 00 10 00 00 00 00 00 00
 2.077821 1  320             Rx   d 7 10 00 00 00 01 20 00
 2.084753 1  130             Rx   d 1 00
 2.096630 1  70              Rx   d 8 24 00 02 EE 01 35 00 82
 2.105380 1  60              Rx   d 3 00 A0 72
 2.108530 1  108             Rx   d 7 05 2D 1B 9B 0B 42 4E
 2.124836 1  621             Rx   d 8 00 40 00 00 00 00 00 00
 2.135926 1  91              Rx   d 4 00 20 00 00
 2.142686 1  330             Rx   d 4 01 10 01 00
 2.144432 1  135             Rx   d 1 00
 2.147189 1  140             Rx   d 5 00 81 0A 84 04
 2.149713 1  535             Rx   d 4 00 06 6E 7C
 2.155326 1  60              Rx   d 3 00 A0 72
 2.158976 1  220             Rx   d 8 00 08 60 00 00 00 00 48
 2.175563 1  160             Rx   d 4 10 00 2C 2C
 2.177752 1  170             Rx   d 3 00 62 7A
 2.179579 1  190             Rx   d 1 40
 2.181588 1  230             Rx   d 2 00 00
 2.184751 1  130             Rx   d 1 00
 2.196622 1  70              Rx   d 8 24 00 02 F7 01 1C 00 4D
 2.206485 1  108             Rx   d 7 05 2D 1B CA 0B 5D 4E
 2.215255 1  60              Rx   d 3 00 A0 71
 2.225087 1  621             Rx   d 8 00 40 00 00 00 00 00 00
 2.244293 1  135             Rx   d 1 00
 2.247079 1  140             Rx   d 5 00 81 32 84 2D
 2.249638 1  535             Rx   d 4 00 06 75 7D
 2.256800 1  220             Rx   d 8 00 07 B8 00 00 00 00 48
 2.263644 1  210             Rx   d 8 00 C0 00 06 18 04 00 00
 2.266648 1  520             Rx   d 6 17 01 18 08 04 24
 2.284768 1  130             Rx   d 1 00
 2.296613 1  627             Rx   d 8 00 00 20 00 00 00 00 00
 2.300208 1  70              Rx   d 8 24 00 03 0B 01 0E 00 5C
 2.306149 1  108             Rx   d 7 05 2D 1B FD 0B 80 4E
 2.316379 1  370             Rx   d 4 48 98 18 00
 2.324712 1  621             Rx   d 8 00 40 00 00 00 00 00 00
 2.329486 1  380             Rx   d 6 00 10 00 00 00 00
 2.344294 1  135             Rx   d 1 00
 2.347011 1  140             Rx   d 5 00 81 59 84 58
 2.349525 1  535             Rx   d 4 00 06 7C 7E
 2.352563 1  445             Rx   d 4 00 4F 4F FF
 2.356826 1  220             Rx   d 8 00 07 10 00 00 00 00 48
 2.373117 1  400             Rx   d 3 09 00 5C
 2.384638 1  130             Rx   d 1 00
 2.396449 1  70              Rx   d 8 24 00 03 13 00 F7 00 48
 2.406070 1  108             Rx   d 7 05 2D 1C 41 0B C9 4E
 2.424664 1  621             Rx   d 8 00 40 00 00 00 00 00 00
 2.444262 1  135             Rx   d 1 00
 2.447101 1  140             Rx   d 5 00 81 81 84 82
 2.450047 1  440             Rx   d 5 00 00 00 00 00
 2.452572 1  535             Rx   d 4 00 06 83 7E
 2.455030 1  445             Rx   d 4 00 4F 4E FF
 2.458694 1  220             Rx   d 8 00 06 A0 00 00 00 00 48
 2.484928 1  130             Rx   d 1 00
 2.496415 1  70              Rx   d 8 24 00 03 19 00 EE 00 45
 2.506106 1  108             Rx   d 7 05 2D 1C 81 0B E4 4E
 2.514968 1  390             Rx   d 8 00 E5 3D 00 00 00 00 00
 2.518598 1  450             Rx   d 8 00 00 BA 69 2D 00 00 00
 2.524684 1  621             Rx   d 8 00 40 00 00 00 00 00 00
 2.534880 1  430             Rx   d 2 04 18
 2.544249 1  135             Rx   d 1 00
 2.546973 1  140             Rx   d 5 00 81 AB 84 AE
 2.549460 1  535             Rx   d 4 00 06 8A 7D
 2.556477 1  220             Rx   d 8 00 05 F8 00 00 00 00 48
 2.584579 1  130             Rx   d 1 00
 2.596357 1  70              Rx   d 8 24 00 03 24 00 DF 00 37
 2.605962 1  108             Rx   d 7 05 2D 1C 9C 0C 03 4D
 2.624692 1  621             Rx   d 8 00 40 00 00 00 00 00 00
 2.627023 1  60              Rx   d 3 00 A0 71
 2.644284 1  135             Rx   d 1 00
 2.647036 1  140             Rx   d 5 00 81 D5 84 DB
 2.649556 1  535             Rx   d 4 00 06 91 7C
 2.656546 1  220             Rx   d 8 00 04 F0 00 00 00 00 48
 2.675085 1  60              Rx   d 3 00 A0 71
 2.684498 1  130             Rx   d 1 00
 2.696369 1  70              Rx   d 8 24 00 03 33 00 BE 00 3D
 2.702112 1  300             Rx   d 2 00 10
 2.704573 1  445             Rx   d 4 00 4F 4E FF
 2.707779 1  108             Rx   d 7 05 2D 1C D6 0C 35 4D
 2.709766 1  490             Rx   d 2 00 0F
 2.716183 1  310             Rx   d 8 18 24 00 42 4C 00 00 20
 2.724481 1  621             Rx   d 8 00 40 00 00 00 00 00 00
 2.744283 1  135             Rx   d 1 00
 2.747156 1  140             Rx   d 5 00 81 FF 85 07
 2.755775 1  740             Rx   d 6 00 00 00 00 00 00
 2.759430 1  220             Rx   d 8 00 03 B8 00 00 00 00 48
 2.761915 1  535             Rx   d 4 00 06 98 7C
 2.784444 1  130             Rx   d 1 00
 2.796286 1  70              Rx   d 8 24 00 03 37 00 9D 0F FD
 2.805974 1  108             Rx   d 7 05 2D 1C F8 0C 50 4C
 2.824464 1  621             Rx   d 8 00 40 00 00 00 00 00 00
 2.832599 1  445             Rx   d 4 00 4E 4E FF
 2.844304 1  135             Rx   d 1 00
 2.847032 1  140             Rx   d 5 00 82 2A 85 35
 2.856353 1  220             Rx   d 8 00 03 48 00 00 00 00 48
 2.858930 1  535             Rx   d 4 00 06 A0 7C
 2.884366 1  130             Rx   d 1 00
 2.890129 1  180             Rx   d 5 00 00 00 00 00
 2.892437 1  183             Rx   d 3 43 FF FF
 2.896374 1  70              Rx   d 8 24 00 03 42 00 79 00 09
 2.903244 1  150             Rx   d 1 00
 2.906398 1  108             Rx   d 7 05 2D 1D 1D 0C 73 4D
 2.909093 1  460             Rx   d 5 00 42 42 06 26
 2.924435 1  621             Rx   d 8 00 40 00 00 00 00 00 00
 2.944298 1  135             Rx   d 1 00
 2.946570 1  60              Rx   d 3 00 A0 72
 2.949366 1  140             Rx   d 5 00 82 56 85 62
 2.956441 1  220             Rx   d 8 00 03 38 00 00 00 00 48
 2.958936 1  535             Rx   d 4 00 06 A7 7D
 2.973364 1  480             Rx   d 2 00 00
 2.984429 1  130             Rx   d 1 00
 2.994924 1  60              Rx   d 3 00 A0 71
 2.998554 1  70              Rx   d 8 24 00 03 46 00 74 00 26
 3.005275 1  460             Rx   d 5 00 42 42 06 26
 3.008464 1  108             Rx   d 7 05 2D 1D 53 0C 8E 4E
 3.024342 1  621             Rx   d 8 00 40 00 00 00 00 00 00
 3.045301 1  140             Rx   d 5 00 82 82 85 8F
 3.047044 1  135             Rx   d 1 00
 3.054845 1  60              Rx   d 3 00 A0 72
 3.058532 1  220             Rx   d 8 00 02 A0 00 00 00 00 48
 3.061021 1  535             Rx   d 4 00 06 AE 7D
 3.084291 1  130             Rx   d 1 00
 3.096257 1  70              Rx   d 8 24 00 03 4B 00 6A 00 15
 3.102590 1  320             Rx   d 7 10 00 00 00 01 20 00
 3.104872 1  60              Rx   d 3 00 A0 71
 3.108016 1  108             Rx   d 7 05 2D 1D 6B 0C B5 4D
 3.110788 1  460             Rx   d 5 00 42 42 07 28
 3.124368 1  621             Rx   d 8 00 40 00 00 00 00 00 00
 3.135159 1  91              Rx   d 4 00 20 00 00
 3.145205 1  140             Rx   d 5 00 82 AE 85 BC
 3.146945 1  135             Rx   d 1 00
 3.154749 1  60              Rx   d 3 00 A0 71
 3.158403 1  220             Rx   d 8 00 01 90 00 00 00 00 48
 3.160895 1  535             Rx   d 4 00 06 B5 7B
 3.167953 1  330             Rx   d 4 01 10 01 00
 3.175001 1  160             Rx   d 4 10 00 2C 2C
 3.177191 1  170             Rx   d 3 00 62 7A
 3.184148 1  130             Rx   d 1 00
 3.195998 1  70              Rx   d 8 24 00 03 59 00 4D 0F F4
 3.205534 1  108             Rx   d 7 05 21 1D 75 0C BD 4A
 3.224272 1  621             Rx   d 8 00 40 00 00 00 00 00 00
 3.245115 1  140             Rx   d 5 00 82 DA 85 EA
 3.246854 1  135             Rx   d 1 00
 3.254565 1  60              Rx   d 3 00 A0 72
 3.258283 1  220             Rx   d 8 00 00 80 00 00 00 00 48
 3.260767 1  535             Rx   d 4 00 06 BC 79
 3.264435 1  210             Rx   d 8 00 C0 00 06 18 04 00 00
 3.267443 1  520             Rx   d 6 17 01 18 08 04 25
 3.284420 1  130             Rx   d 1 00
 3.295931 1  70              Rx   d 8 24 00 03 5C 00 2E 0F D9
 3.297672 1  90              Rx   d 1 27
 3.305586 1  108             Rx   d 7 05 18 1D 64 0C FA 43
 3.324131 1  621             Rx   d 8 00 40 00 00 00 00 00 00
 3.326470 1  60              Rx   d 3 00 A0 71
 3.345397 1  140             Rx   d 5 00 83 07 86 18
 3.347136 1  135             Rx   d 1 00
 3.356165 1  220             Rx   d 8 00 FF D0 00 00 00 00 48
 3.358681 1  535             Rx   d 4 00 06 C2 78
 3.373085 1  400             Rx   d 3 09 00 5C
 3.375361 1  60              Rx   d 3 00 A0 72
 3.384005 1  130             Rx   d 1 00
 3.395879 1  70              Rx   d 8 24 00 03 63 00 14 0F BC
 3.405565 1  108             Rx   d 7 05 00 1C 7A 0D 11 37
 3.407544 1  430             Rx   d 2 04 17
 3.424156 1  621             Rx   d 8 00 40 00 00 00 00 00 00
 3.426497 1  60              Rx   d 3 00 A0 72
 3.445034 1  140             Rx   d 5 00 83 35 86 47
 3.446768 1  135             Rx   d 1 00
 3.456064 1  220             Rx   d 8 00 FF 58 00 00 00 00 48
 3.458529 1  535             Rx   d 4 00 06 C6 78
 3.474447 1  60              Rx   d 3 00 A0 71
 3.483963 1  130             Rx   d 1 00
 3.496007 1  70              Rx   d 8 24 00 03 6F 0F F8 0F CF
 3.505519 1  108             Rx   d 7 05 00 1A E9 0D 19 30
 3.514942 1  450             Rx   d 8 00 00 BA 69 2D 00 00 00
 3.524034 1  621             Rx   d 8 00 40 00 00 00 00 00 00
 3.544960 1  140             Rx   d 5 00 83 63 86 75
 3.546695 1  135             Rx   d 1 00
 3.555970 1  220             Rx   d 8 00 FF 30 00 00 00 00 48
 3.558454 1  535             Rx   d 4 00 06 C9 78
 3.583923 1  130             Rx   d 1 00
 3.595849 1  70              Rx   d 8 24 00 03 75 0F EC 0F DE
 3.604521 1  60              Rx   d 3 00 A0 72
 3.607784 1  108             Rx   d 7 05 00 18 C6 0D 53 2F
 3.623963 1  621             Rx   d 8 00 40 00 00 00 00 00 00
 3.644853 1  140             Rx   d 5 00 83 91 86 A3
 3.646594 1  135             Rx   d 1 00
 3.654361 1  60              Rx   d 3 00 A0 71
 3.656817 1  535             Rx   d 4 00 06 CB 79
 3.676049 1  220             Rx   d 8 00 FF 38 00 00 00 00 48
 3.683931 1  130             Rx   d 1 00
 3.695655 1  70              Rx   d 8 24 00 03 78 0F ED 0F D2
 3.702680 1  445             Rx   d 4 00 4E 4E FF
 3.704958 1  60              Rx   d 3 00 A0 71
 3.708236 1  108             Rx   d 7 05 00 16 75 0D 62 2F
 3.710241 1  430             Rx   d 2 04 18
 3.724191 1  621             Rx   d 8 00 40 00 00 00 00 00 00
 3.744965 1  140             Rx   d 5 00 83 C0 86 D1
 3.746712 1  135             Rx   d 1 00
 3.754894 1  535             Rx   d 4 00 06 CD 79
 3.775887 1  220             Rx   d 8 00 FF 38 00 00 00 00 48
 3.783832 1  130             Rx   d 1 00
 3.795650 1  70              Rx   d 8 24 00 03 76 0F F1 0F F4
 3.805367 1  108             Rx   d 7 05 00 14 5C 0D 6A 2F
 3.823870 1  621             Rx   d 8 00 40 00 00 00 00 00 00
 3.844856 1  140             Rx   d 5 00 83 F0 87 00
 3.846597 1  135             Rx   d 1 00
 3.854786 1  535             Rx   d 4 00 06 CF 7A
 3.864352 1  60              Rx   d 3 00 A0 72
 3.875808 1  220             Rx   d 8 00 FF 40 00 00 00 00 48
 3.883875 1  130             Rx   d 1 00
 3.890088 1  180             Rx   d 5 00 00 00 00 00
 3.892402 1  183             Rx   d 3 43 FF FF
 3.896025 1  70              Rx   d 8 24 00 03 79 0F F6 0F CD
 3.903241 1  150             Rx   d 1 00
 3.906505 1  108             Rx   d 7 05 00 12 B8 0D 72 2F
 3.914305 1  60              Rx   d 3 00 A0 71
 3.923929 1  621             Rx   d 8 00 40 00 00 00 00 00 00
 3.936810 1  460             Rx   d 5 00 42 42 07 28
 3.944931 1  140             Rx   d 5 00 84 20 87 30
 3.946676 1  135             Rx   d 1 00
 3.954681 1  535             Rx   d 4 00 06 D0 7C
 3.975794 1  220             Rx   d 8 00 FF 58 00 00 00 00 48
 3.983860 1  130             Rx   d 1 00
 3.995589 1  70              Rx   d 8 24 00 03 7D 0F F0 0F E9
 4.005301 1  108             Rx   d 7 05 00 11 D7 0D 76 2E
 4.007307 1  430             Rx   d 2 04 18
 4.023893 1  621             Rx   d 8 00 40 00 00 00 00 00 00
 4.034241 1  60              Rx   d 3 00 A0 72
 4.044672 1  140             Rx   d 5 00 84 4E 87 5E
 4.046417 1  135             Rx   d 1 00
 4.049833 1  690             Rx   d 8 53 33 46 48 37 31 55 34
 4.053317 1  700             Rx   d 8 36 36 31 30 34 37 36 32
 4.055861 1  160             Rx   d 4 10 30 2C 2C
 4.058423 1  535             Rx   d 4 00 06 D2 7C
 4.075748 1  220             Rx   d 8 00 FF 50 00 00 00 00 48
 4.084204 1  60              Rx   d 3 00 A0 71
 4.085943 1  130             Rx   d 1 00
 4.095515 1  70              Rx   d 8 24 00 03 75 0F F2 0F F9
 4.105287 1  108             Rx   d 7 05 00 11 5B 0D 76 2E
 4.123735 1  621             Rx   d 8 00 40 00 00 00 00 00 00
 4.127395 1  320             Rx   d 7 10 00 00 00 01 20 00
 4.134113 1  60              Rx   d 3 00 A0 71
 4.136722 1  91              Rx   d 4 00 20 00 00
 4.144668 1  140             Rx   d 5 00 84 7E 87 8E
 4.146410 1  135             Rx   d 1 00
 4.154668 1  535             Rx   d 4 00 06 D3 7B
 4.174630 1  160             Rx   d 4 10 30 2C 2C
 4.176818 1  170             Rx   d 3 00 62 7A
 4.180537 1  220             Rx   d 8 00 FF 40 00 00 00 00 48
 4.184168 1  60              Rx   d 3 00 A0 71
 4.185906 1  130             Rx   d 1 00
 4.193249 1  330             Rx   d 4 01 10 01 00
 4.196872 1  70              Rx   d 8 24 00 03 7F 0F F2 0F EA
 4.205061 1  108             Rx   d 7 05 00 11 1E 0D 72 2E
 4.212296 1  350             Rx   d 5 20 00 00 00 00
 4.223602 1  621             Rx   d 8 00 40 00 00 00 00 00 00
 4.226092 1  211             Rx   d 4 00 00 A8 43
 4.244583 1  140             Rx   d 5 00 84 AD 87 BD
 4.246326 1  135             Rx   d 1 00
 4.254454 1  535             Rx   d 4 00 06 D4 7B
 4.263878 1  210             Rx   d 8 00 C0 00 06 18 04 00 00
 4.266851 1  520             Rx   d 6 17 01 18 08 04 26
 4.275521 1  220             Rx   d 8 00 FF 58 00 00 00 00 48
 4.284069 1  60              Rx   d 3 00 A0 70
 4.285810 1  130             Rx   d 1 00
 4.295373 1  70              Rx   d 8 24 00 03 84 0F F2 0F E2
 4.305003 1  108             Rx   d 7 05 00 11 05 0D 72 2E
 4.323742 1  621             Rx   d 8 00 40 00 00 00 00 00 00
 4.334039 1  60              Rx   d 3 00 A0 6F
 4.340258 1  340             Rx   d 6 20 00 0C 00 71 80
 4.344516 1  140             Rx   d 5 00 84 DE 87 ED
 4.346413 1  135             Rx   d 1 00
 4.354449 1  535             Rx   d 4 00 06 D5 7B
 4.373137 1  400             Rx   d 3 09 00 5C
 4.376769 1  220             Rx   d 8 00 FF 50 00 00 00 00 48
 4.382624 1  532             Rx   d 3 46 00 00
 4.384963 1  60              Rx   d 3 00 A0 70
 4.386710 1  130             Rx   d 1 00
 4.395463 1  70              Rx   d 8 24 00 03 7D 0F FA 0F EE
 4.404911 1  108             Rx   d 7 03 00 10 D7 0D 6E 2E
 4.423653 1  621             Rx   d 8 00 40 00 00 00 00 00 00
 4.434006 1  60              Rx   d 3 00 A0 71
 4.444412 1  140             Rx   d 5 00 85 0D 88 1B
 4.446147 1  135             Rx   d 1 00
 4.454424 1  535             Rx   d 4 00 06 D7 7B
 4.462826 1  211             Rx   d 4 00 00 00 00
 4.475607 1  220             Rx   d 8 00 FF 58 00 00 00 00 48
 4.483429 1  130             Rx   d 1 00
 4.495305 1  70              Rx   d 8 24 00 03 79 0F ED 0F F3
 4.504838 1  108             Rx   d 7 03 00 10 D7 0D 7A 2E
 4.514927 1  450             Rx   d 8 00 00 BA 69 2E 00 00 00
 4.523471 1  621             Rx   d 8 00 40 00 00 00 00 00 00
 4.544045 1  60              Rx   d 3 00 A0 72
 4.545782 1  135             Rx   d 1 00
 4.548485 1  140             Rx   d 5 00 85 3D 88 4B
 4.554272 1  535             Rx   d 4 00 06 D8 7A
 4.575569 1  220             Rx   d 8 00 FF 60 00 00 00 00 48
 4.578107 1  91              Rx   d 4 00 A0 00 00
 4.583541 1  130             Rx   d 1 00
 4.589272 1  380             Rx   d 6 20 10 00 00 00 00
 4.595213 1  70              Rx   d 8 24 00 03 80 0F EC 0F E3
 4.604873 1  108             Rx   d 7 03 00 10 B2 0D 76 2F
 4.623523 1  621             Rx   d 8 00 40 00 00 00 00 00 00
 4.625854 1  60              Rx   d 3 00 A0 71
 4.644455 1  140             Rx   d 5 00 85 6B 88 7A
 4.646191 1  135             Rx   d 1 00
 4.654541 1  535             Rx   d 4 00 06 DA 7A
 4.675736 1  220             Rx   d 8 00 FF 68 00 00 00 00 48
 4.683294 1  130             Rx   d 1 00
 4.695076 1  70              Rx   d 8 24 00 03 7B 0F FB 0F E3
 4.702798 1  445             Rx   d 4 00 4E 4E FF
 4.706060 1  108             Rx   d 7 03 00 10 62 0D 6A 2F
 4.708769 1  460             Rx   d 5 00 42 42 06 26
 4.723612 1  621             Rx   d 8 00 40 00 00 00 00 00 00
 4.744180 1  140             Rx   d 5 00 85 9C 88 AA
 4.745920 1  135             Rx   d 1 00
 4.754291 1  535             Rx   d 4 00 06 DB 7B
 4.775254 1  220             Rx   d 8 00 FF 90 00 00 00 00 48
 4.783380 1  130             Rx   d 1 00
 4.794985 1  70              Rx   d 8 24 00 03 7B 0F F5 0F EB
 4.804791 1  108             Rx   d 7 03 00 10 47 0D 62 2E
 4.823260 1  621             Rx   d 8 00 40 00 00 00 00 00 00
 4.844280 1  140             Rx   d 5 00 85 CB 88 D8
 4.846021 1  135             Rx   d 1 00
 4.854120 1  535             Rx   d 4 00 06 DD 7C
 4.875261 1  220             Rx   d 8 00 FF C0 00 00 00 00 48
 4.883240 1  130             Rx   d 1 00
 4.889990 1  180             Rx   d 5 00 00 00 00 00
 4.892318 1  183             Rx   d 3 43 FF FF
 4.895994 1  70              Rx   d 8 24 00 03 78 0F F8 00 07
 4.903700 1  60              Rx   d 3 00 A0 72
 4.906968 1  108             Rx   d 7 03 00 10 64 0D 6E 2E
 4.908716 1  150             Rx   d 1 00
 4.911451 1  460             Rx   d 5 00 42 42 05 23
 4.923183 1  621             Rx   d 8 00 40 00 00 00 00 00 00
 4.933556 1  430             Rx   d 2 04 18
 4.944291 1  140             Rx   d 5 00 85 FA 89 07
 4.946019 1  135             Rx   d 1 00
 4.953594 1  60              Rx   d 3 00 A0 71
 4.956112 1  535             Rx   d 4 00 06 DF 7C
 4.975111 1  220             Rx   d 8 00 FF E0 00 00 00 00 48
 4.983115 1  130             Rx   d 1 00
 4.994958 1  70              Rx   d 8 24 00 03 73 00 07 0F F6
 5.004765 1  108             Rx   d 7 03 00 10 16 0D 4F 2F
 5.007494 1  460             Rx   d 5 00 42 42 05 23
 5.023360 1  621             Rx   d 8 00 40 00 00 00 00 00 00
 5.044096 1  140             Rx   d 5 00 86 2A 89 37
 5.045833 1  135             Rx   d 1 00
 5.053956 1  535             Rx   d 4 00 06 E0 7A
 5.060014 1  62A             Rx   d 8 00 08 00 00 00 00 00 00
 5.064641 1  625             Rx   d 8 00 10 00 00 00 00 00 00
 5.066826 1  170             Rx   d 3 00 63 7A
 5.075076 1  220             Rx   d 8 00 FF F8 00 00 00 00 48
 5.083118 1  130             Rx   d 1 00
 5.094870 1  70              Rx   d 8 24 00 03 6D 00 02 0F F6
 5.104583 1  108             Rx   d 7 03 00 10 1B 0D 44 2E
 5.123060 1  621             Rx   d 8 00 40 00 00 00 00 00 00
 5.133617 1  60              Rx   d 3 00 A0 72
 5.136204 1  91              Rx   d 4 00 A0 00 00
 5.144186 1  140             Rx   d 5 00 86 59 89 67
 5.145928 1  135             Rx   d 1 00
 5.152087 1  320             Rx   d 7 10 00 00 00 01 20 00
 5.154570 1  535             Rx   d 4 00 06 E2 78
 5.173888 1  160             Rx   d 4 10 30 2C 2C
 5.176072 1  170             Rx   d 3 00 63 7A
 5.177840 1  190             Rx   d 1 40
 5.181602 1  220             Rx   d 8 00 FF F8 00 00 00 00 48
 5.183875 1  60              Rx   d 3 00 A0 71
 5.185618 1  130             Rx   d 1 00
 5.187634 1  230             Rx   d 2 00 00
 5.194919 1  70              Rx   d 8 24 00 03 6A 00 05 00 02
 5.204517 1  108             Rx   d 7 03 00 0F E5 0D 4B 2F
 5.218518 1  330             Rx   d 4 01 10 01 00
 5.223020 1  621             Rx   d 8 00 40 00 00 00 00 00 00
 5.244065 1  140             Rx   d 5 00 86 88 89 95
 5.245806 1  135             Rx   d 1 00
 5.253817 1  535             Rx   d 4 00 06 E4 7A
 5.264024 1  210             Rx   d 8 00 C0 00 06 18 04 00 00
 5.267025 1  520             Rx   d 6 17 01 18 08 04 27
 5.283041 1  130             Rx   d 1 00
 5.294827 1  70              Rx   d 8 24 00 03 66 00 0A 0F F5
 5.296806 1  430             Rx   d 2 04 19
 5.300558 1  627             Rx   d 8 00 00 20 00 00 00 00 00
 5.304424 1  108             Rx   d 7 03 00 0F F2 0D 44 2E
 5.316346 1  370             Rx   d 4 48 98 18 00
 5.322973 1  621             Rx   d 8 00 40 00 00 00 00 00 00
 5.329276 1  380             Rx   d 6 20 10 00 00 00 00
 5.343880 1  140             Rx   d 5 00 86 B7 89 C4
 5.345619 1  135             Rx   d 1 00
 5.355041 1  220             Rx   d 8 00 FF E8 00 00 00 00 48
 5.357528 1  535             Rx   d 4 00 06 E5 7B
 5.373098 1  400             Rx   d 3 09 00 5C
 5.379517 1  350             Rx   d 5 20 00 00 00 40
 5.382922 1  130             Rx   d 1 00
 5.394761 1  70              Rx   d 8 24 00 03 63 00 03 00 01
 5.404655 1  108             Rx   d 7 03 00 0F B7 0D 06 2F
 5.422918 1  621             Rx   d 8 00 40 00 00 00 00 00 00
 5.443848 1  140             Rx   d 5 00 86 E5 89 F1
 5.445596 1  135             Rx   d 1 00
 5.448533 1  440             Rx   d 5 00 00 00 00 00
 5.455039 1  220             Rx   d 8 00 FF E8 00 00 00 00 48
 5.457555 1  535             Rx   d 4 00 06 E7 7C
 5.482813 1  130             Rx   d 1 00
 5.494714 1  70              Rx   d 8 24 00 03 5A 00 08 0F EE
 5.504585 1  108             Rx   d 7 03 00 0F B9 0D 02 2E
 5.514939 1  390             Rx   d 8 00 E5 3D 00 00 00 00 00
 5.518569 1  450             Rx   d 8 00 00 BA 69 2E 00 00 00
 5.522913 1  621             Rx   d 8 00 40 00 00 00 00 00 00
 5.543877 1  140             Rx   d 5 00 87 15 8A 20
 5.545624 1  135             Rx   d 1 00
 5.553686 1  535             Rx   d 4 00 06 E9 7E
 5.582715 1  130             Rx   d 1 00
 5.586434 1  220             Rx   d 8 00 FF E0 00 00 00 00 48
 5.594681 1  70              Rx   d 8 24 00 03 48 00 04 0F EE
 5.604304 1  108             Rx   d 7 03 00 0F AD 0C D0 2F
 5.622896 1  621             Rx   d 8 00 40 00 00 00 00 00 00
 5.643725 1  140             Rx   d 5 00 87 42 8A 4E
 5.645452 1  135             Rx   d 1 00
 5.653638 1  535             Rx   d 4 00 06 EB 7F
 5.682788 1  130             Rx   d 1 00
 5.686567 1  220             Rx   d 8 00 FF C0 00 00 00 00 48
 5.694574 1  70              Rx   d 8 24 00 03 3B 00 05 00 00
 5.702470 1  300             Rx   d 2 00 10
 5.704810 1  60              Rx   d 3 00 A0 70
 5.708044 1  108             Rx   d 7 03 00 0F 97 0C 96 2F
 5.710514 1  445             Rx   d 4 00 4E 4E FF
 5.712496 1  490             Rx   d 2 00 0F
 5.716726 1  310             Rx   d 8 18 24 00 42 4C 00 00 20
 5.722880 1  621             Rx   d 8 00 40 00 00 00 00 00 00
 5.743664 1  140             Rx   d 5 00 87 70 8A 7C
 5.745399 1  135             Rx   d 1 00
 5.753144 1  60              Rx   d 3 00 A0 71
 5.755657 1  535             Rx   d 4 00 06 EC 7F
 5.758872 1  740             Rx   d 6 00 00 00 00 00 00
 5.782711 1  130             Rx   d 1 00
 5.786490 1  220             Rx   d 8 00 FF 90 00 00 00 00 48
 5.794470 1  70              Rx   d 8 24 00 03 29 0F FD 0F F1
 5.804155 1  108             Rx   d 7 03 00 0F 66 0C 58 2F
 5.822683 1  621             Rx   d 8 00 40 00 00 00 00 00 00
 5.843646 1  140             Rx   d 5 00 87 9C 8A A8
 5.845384 1  135             Rx   d 1 00
 5.853582 1  535             Rx   d 4 00 06 EE 7F
 5.882570 1  130             Rx   d 1 00
 5.886224 1  220             Rx   d 8 00 FF 88 00 00 00 00 48
 5.889945 1  180             Rx   d 5 00 00 00 00 00
 5.892263 1  183             Rx   d 3 43 FF FF
 5.895962 1  70              Rx   d 8 24 00 03 16 0F FC 0F E2
 5.904114 1  108             Rx   d 7 03 00 0F 3A 0C 22 2F
 5.905858 1  150             Rx   d 1 00
 5.922831 1  621             Rx   d 8 00 40 00 00 00 00 00 00
 5.935796 1  460             Rx   d 5 00 42 42 05 23
 5.943716 1  140             Rx   d 5 00 87 C8 8A D2
 5.945451 1  135             Rx   d 1 00
 5.953492 1  535             Rx   d 4 00 06 F0 7E
 5.976118 1  480             Rx   d 2 00 00
 5.982678 1  130             Rx   d 1 00
 5.986429 1  220             Rx   d 8 00 FF 90 00 00 00 00 48
 5.994619 1  70              Rx   d 8 24 00 03 07 0F FD 0F FC
 6.004039 1  108             Rx   d 7 03 00 0F 4C 0B DD 2F
 6.022686 1  621             Rx   d 8 00 40 00 00 00 00 00 00
 6.043686 1  140             Rx   d 5 00 87 F3 8A FE
 6.045421 1  135             Rx   d 1 00
 6.053486 1  535             Rx   d 4 00 06 F2 7A
 6.082546 1  130             Rx   d 1 00
 6.086291 1  220             Rx   d 8 00 FF 98 00 00 00 00 48
 6.094329 1  70              Rx   d 8 24 00 02 EF 0F FE 0F EE
 6.104050 1  108             Rx   d 7 03 00 0F 50 0B 90 2F
 6.122518 1  621             Rx   d 8 00 40 00 00 00 00 00 00
 6.132924 1  60              Rx   d 3 00 A0 71
 6.134906 1  430             Rx   d 2 04 19
 6.137445 1  91              Rx   d 4 00 A0 00 00
 6.143451 1  140             Rx   d 5 00 88 1D 8B 27
 6.145196 1  135             Rx   d 1 00
 6.153439 1  535             Rx   d 4 00 06 F4 7B
 6.173263 1  160             Rx   d 4 10 30 2C 2C
 6.175449 1  170             Rx   d 3 00 63 7A
 6.178873 1  320             Rx   d 7 10 00 00 00 01 20 00
 6.182508 1  130             Rx   d 1 00
 6.194325 1  70              Rx   d 8 24 00 02 DC 0F F9 0F F1
 6.203952 1  108             Rx   d 7 03 00 0F 4E 0B 59 2F
 6.213093 1  60              Rx   d 3 00 A0 70
 6.222489 1  621             Rx   d 8 00 40 00 00 00 00 00 00
 6.243382 1  140             Rx   d 5 00 88 46 8B 51
 6.245132 1  135             Rx   d 1 00
 6.247684 1  330             Rx   d 4 01 10 01 00
 6.253253 1  535             Rx   d 4 00 06 F6 7D
 6.264157 1  210             Rx   d 8 00 C0 00 06 18 04 00 00
 6.267156 1  520             Rx   d 6 17 01 18 08 04 28
 6.273096 1  60              Rx   d 3 00 A0 71
 6.282542 1  130             Rx   d 1 00
 6.294181 1  70              Rx   d 8 24 00 02 CB 0F FE 0F F1
 6.295919 1  90              Rx   d 1 27
 6.303878 1  108             Rx   d 7 03 00 0F 33 0B 01 2F
 6.322583 1  621             Rx   d 8 00 40 00 00 00 00 00 00
 6.343418 1  140             Rx   d 5 00 88 6E 8B 79
 6.345172 1  135             Rx   d 1 00
 6.353656 1  535             Rx   d 4 00 06 F8 80
 6.373122 1  400             Rx   d 3 09 00 5C
 6.382269 1  130             Rx   d 1 00
 6.385931 1  220             Rx   d 8 00 FF A0 00 00 00 00 48
 6.394201 1  70              Rx   d 8 24 00 02 B0 0F FC 0F FC
 6.403864 1  108             Rx   d 7 03 00 0F 18 0A B4 2F
 6.422335 1  621             Rx   d 8 00 40 00 00 00 00 00 00
 6.432678 1  430             Rx   d 2 04 18
 6.443229 1  140             Rx   d 5 00 88 95 8B 9E
 6.444972 1  135             Rx   d 1 00
 6.453229 1  535             Rx   d 4 00 06 FA 7F
 6.482285 1  130             Rx   d 1 00
 6.485937 1  220             Rx   d 8 00 FF A8 00 00 00 00 48
 6.494125 1  70              Rx   d 8 24 00 02 A1 0F FD 0F E5
 6.503782 1  108             Rx   d 7 03 00 0F 07 0A 57 2F
 6.514923 1  450             Rx   d 8 00 00 BA 69 2E 00 00 00
 6.522441 1  621             Rx   d 8 00 40 00 00 00 00 00 00
 6.543195 1  140             Rx   d 5 00 88 BB 8B C6
 6.545088 1  135             Rx   d 1 00
 6.553123 1  535             Rx   d 4 00 06 FC 7E
 6.582247 1  130             Rx   d 1 00
 6.585903 1  220             Rx   d 8 00 FF A0 00 00 00 00 48
 6.594085 1  70              Rx   d 8 24 00 02 8D 0F FE 0F F3
 6.603801 1  108             Rx   d 7 03 00 0E F6 0A 11 2F
 6.622242 1  621             Rx   d 8 00 40 00 00 00 00 00 00
 6.643180 1  140             Rx   d 5 00 88 E0 8B EA
 6.645095 1  135             Rx   d 1 00
 6.653047 1  535             Rx   d 4 00 06 FE 7F
 6.682132 1  130             Rx   d 1 00
 6.694008 1  70              Rx   d 8 24 00 02 7A 00 05 00 02
 6.702703 1  60              Rx   d 3 00 A0 70
 6.705945 1  108             Rx   d 7 03 00 0F 0C 09 CC 30
 6.708403 1  445             Rx   d 4 00 4E 4E FF
 6.711260 1  350             Rx   d 5 20 00 00 00 00
 6.722176 1  621             Rx   d 8 00 40 00 00 00 00 00 00
 6.732491 1  430             Rx   d 2 04 19
 6.743138 1  140             Rx   d 5 00 89 04 8C 0C
 6.745091 1  135             Rx   d 1 00
 6.752560 1  60              Rx   d 3 00 A0 71
 6.756220 1  220             Rx   d 8 00 FF A0 00 00 00 00 48
 6.758795 1  535             Rx   d 4 00 07 01 7F
 6.782036 1  130             Rx   d 1 00
 6.794004 1  70              Rx   d 8 24 00 02 66 00 00 0F EA
 6.803603 1  108             Rx   d 7 03 00 0F 0E 09 83 30
 6.822158 1  621             Rx   d 8 00 40 00 00 00 00 00 00
 6.843031 1  140             Rx   d 5 00 89 26 8C 2F
 6.845129 1  135             Rx   d 1 00
 6.854131 1  220             Rx   d 8 00 FF 98 00 00 00 00 48
 6.856677 1  535             Rx   d 4 00 07 03 7F
 6.882020 1  130             Rx   d 1 00
 6.889911 1  180             Rx   d 5 00 00 00 00 00
 6.892221 1  183             Rx   d 3 43 FF FF
 6.895824 1  70              Rx   d 8 24 00 02 53 0F FD 0F ED
 6.903534 1  108             Rx   d 7 03 00 0E E5 09 32 30
 6.905282 1  150             Rx   d 1 00
 6.922250 1  621             Rx   d 8 00 40 00 00 00 00 00 00
 6.935908 1  460             Rx   d 5 00 42 42 05 23
 6.942983 1  140             Rx   d 5 00 89 47 8C 50
 6.945151 1  135             Rx   d 1 00
 6.952943 1  535             Rx   d 4 00 07 06 7F
 6.982092 1  130             Rx   d 1 00
 6.993906 1  70              Rx   d 8 24 00 02 3E 0F FE 0F EC
 7.003529 1  108             Rx   d 7 03 00 0E B7 08 EC 30
 7.022060 1  621             Rx   d 8 00 40 00 00 00 00 00 00
 7.025905 1  220             Rx   d 8 00 FF 90 00 00 00 00 48
 7.042872 1  140             Rx   d 5 00 89 69 8C 70
 7.045121 1  135             Rx   d 1 00
 7.052830 1  535             Rx   d 4 00 07 08 7E
 7.081913 1  130             Rx   d 1 00
 7.093882 1  70              Rx   d 8 24 00 02 2B 00 00 00 0A
 7.103423 1  108             Rx   d 7 03 00 0E 75 08 97 30
 7.122038 1  621             Rx   d 8 00 40 00 00 00 00 00 00
 7.125818 1  220             Rx   d 8 00 FF 78 00 00 00 00 48
 7.132896 1  60              Rx   d 3 00 A0 71
 7.135441 1  91              Rx   d 4 00 A0 00 00
 7.142851 1  140             Rx   d 5 00 89 88 8C 90
 7.145106 1  135             Rx   d 1 00
 7.152809 1  535             Rx   d 4 00 07 0B 7E
 7.172635 1  160             Rx   d 4 10 30 2C 2C
 7.174819 1  170             Rx   d 3 00 63 7A
 7.181816 1  130             Rx   d 1 00
 7.193840 1  70              Rx   d 8 24 00 02 13 00 00 0F F4
 7.201653 1  320             Rx   d 7 10 00 00 00 01 20 00
 7.204887 1  108             Rx   d 7 03 00 0E 68 08 4E 30
 7.222097 1  621             Rx   d 8 00 40 00 00 00 00 00 00
 7.242729 1  140             Rx   d 5 00 89 A7 8C AF
 7.244977 1  135             Rx   d 1 00
 7.252785 1  535             Rx   d 4 00 07 0D 7F
 7.264304 1  210             Rx   d 8 00 C0 00 06 18 04 00 00
 7.267278 1  520             Rx   d 6 17 01 18 08 04 29
 7.269830 1  330             Rx   d 4 01 10 01 00
 7.281859 1  130             Rx   d 1 00
 7.284710 1  350             Rx   d 5 20 00 00 00 00
 7.293651 1  70              Rx   d 8 24 00 01 FA 0F FD 0F F1
 7.303456 1  108             Rx   d 7 03 00 0E 6B 07 F9 30
 7.321903 1  621             Rx   d 8 00 40 00 00 00 00 00 00
 7.332093 1  430             Rx   d 2 04 19
 7.342734 1  140             Rx   d 5 00 89 C4 8C CC
 7.344989 1  135             Rx   d 1 00
 7.352548 1  160             Rx   d 4 10 00 2C 2C
 7.355134 1  535             Rx   d 4 00 07 10 7F
 7.373129 1  400             Rx   d 3 09 00 5C
 7.381705 1  130             Rx   d 1 00
 7.393582 1  70              Rx   d 8 24 00 01 DD 00 00 0F EC
 7.403446 1  108             Rx   d 7 03 00 0E 4E 07 89 30
 7.414682 1  340             Rx   d 6 20 00 0C 00 71 80
 7.421789 1  621             Rx   d 8 00 40 00 00 00 00 00 00
 7.442656 1  140             Rx   d 5 00 89 E0 8C E7
 7.444997 1  135             Rx   d 1 00
 7.453647 1  220             Rx   d 8 00 FF 88 00 00 00 00 48
 7.456130 1  535             Rx   d 4 00 07 12 81
 7.481653 1  130             Rx   d 1 00
 7.493490 1  70              Rx   d 8 24 00 01 C5 0F FF 0F EF
 7.503263 1  108             Rx   d 7 03 00 0E 2E 07 1D 30
 7.514942 1  450             Rx   d 8 00 00 BA 69 2F 00 00 00
 7.521777 1  621             Rx   d 8 00 40 00 00 00 00 00 00
 7.542674 1  140             Rx   d 5 00 89 FB 8D 01
 7.547217 1  135             Rx   d 1 00
 7.553615 1  220             Rx   d 8 00 FF 88 00 00 00 00 48
 7.556092 1  535             Rx   d 4 00 07 15 82
 7.563141 1  211             Rx   d 4 00 00 A8 43
 7.581589 1  130             Rx   d 1 00
 7.593550 1  70              Rx   d 8 24 00 01 AA 00 00 0F F4
 7.603146 1  108             Rx   d 7 03 00 0D FD 06 B5 31
 7.621828 1  621             Rx   d 8 00 40 00 00 00 00 00 00
 7.632107 1  60              Rx   d 3 00 A0 70
 7.642587 1  140             Rx   d 5 00 8A 13 8D 19
 7.645013 1  135             Rx   d 1 00
 7.653555 1  220             Rx   d 8 00 FF 98 00 00 00 00 48
 7.656080 1  535             Rx   d 4 00 07 18 82
 7.681598 1  130             Rx   d 1 00
 7.693381 1  70              Rx   d 8 24 00 01 8F 0F FD 0F F9
 7.703154 1  108             Rx   d 7 03 00 0D F6 06 5C 31
 7.705617 1  445             Rx   d 4 00 4E 4E FF
 7.721669 1  621             Rx   d 8 00 40 00 00 00 00 00 00
 7.742477 1  140             Rx   d 5 00 8A 2B 8D 31
 7.745024 1  135             Rx   d 1 00
 7.753571 1  220             Rx   d 8 00 FF A0 00 00 00 00 48
 7.756061 1  535             Rx   d 4 00 07 1A 82
 7.781463 1  130             Rx   d 1 00
 7.793364 1  70              Rx   d 8 24 00 01 77 0F FB 0F F1
 7.802214 1  60              Rx   d 3 00 A0 71
 7.805574 1  108             Rx   d 7 03 00 0E 09 05 F8 31
 7.821524 1  621             Rx   d 8 00 40 00 00 00 00 00 00
 7.842518 1  140             Rx   d 5 00 8A 42 8D 48
 7.845065 1  135             Rx   d 1 00
 7.852589 1  535             Rx   d 4 00 07 1D 7D
 7.881562 1  130             Rx   d 1 00
 7.889875 1  180             Rx   d 5 00 00 00 00 00
 7.893651 1  70              Rx   d 8 24 00 01 5F 0F FE 0F F3
 7.895960 1  183             Rx   d 3 43 FF FF
 7.899627 1  220             Rx   d 8 00 FF A0 00 00 00 00 48
 7.902956 1  108             Rx   d 7 03 00 0E 09 05 93 31
 7.904696 1  150             Rx   d 1 00
 7.921464 1  621             Rx   d 8 00 40 00 00 00 00 00 00
 7.936080 1  460             Rx   d 5 00 42 42 05 23
 7.945078 1  135             Rx   d 1 00
 7.952332 1  140             Rx   d 5 00 8A 56 8D 5D
 7.954855 1  535             Rx   d 4 00 07 1F 7C
 7.981455 1  130             Rx   d 1 00
 7.993390 1  70              Rx   d 8 24 00 01 43 00 00 0F EE
 7.997050 1  220             Rx   d 8 00 FF A8 00 00 00 00 48
 8.002956 1  108             Rx   d 7 03 00 0D EA 05 2F 30
 8.021485 1  621             Rx   d 8 00 40 00 00 00 00 00 00
 8.045070 1  135             Rx   d 1 00
 8.052267 1  140             Rx   d 5 00 8A 6A 8D 71
 8.054753 1  535             Rx   d 4 00 07 22 7D
 8.064648 1  625             Rx   d 8 00 10 00 00 00 00 00 00
 8.081297 1  130             Rx   d 1 00
 8.093211 1  70              Rx   d 8 24 00 01 2F 00 03 0F F3
 8.096891 1  220             Rx   d 8 00 FF B0 00 00 00 00 48
 8.102830 1  108             Rx   d 7 03 00 0D E0 04 D2 30
 8.121452 1  621             Rx   d 8 00 40 00 00 00 00 00 00
 8.131769 1  60              Rx   d 3 00 A0 71
 8.134314 1  91              Rx   d 4 00 A0 00 00
 8.138044 1  62A             Rx   d 8 00 08 00 00 00 00 00 00
 8.145096 1  135             Rx   d 1 00
 8.152295 1  140             Rx   d 5 00 8A 7D 8D 82
 8.154782 1  535             Rx   d 4 00 07 24 7F
 8.172064 1  160             Rx   d 4 10 00 2C 2C
 8.174246 1  170             Rx   d 3 00 63 7A
 8.176013 1  190             Rx   d 1 40
 8.178021 1  230             Rx   d 2 00 00
 8.181356 1  130             Rx   d 1 00
 8.193149 1  70              Rx   d 8 24 00 01 1B 00 00 0F F3
 8.196892 1  220             Rx   d 8 00 FF D0 00 00 00 00 48
 8.202770 1  108             Rx   d 7 03 00 0D BB 04 89 31
 8.205266 1  211             Rx   d 4 00 00 A8 43
 8.221431 1  621             Rx   d 8 00 40 00 00 00 00 00 00
 8.226452 1  320             Rx   d 7 10 00 00 00 01 20 00
 8.245108 1  135             Rx   d 1 00
 8.252277 1  140             Rx   d 5 00 8A 8D 8D 94
 8.254765 1  535             Rx   d 4 00 07 27 7F
 8.261748 1  60              Rx   d 3 00 A0 70
 8.265419 1  210             Rx   d 8 00 C0 00 06 18 04 00 00
 8.268419 1  520             Rx   d 6 17 01 18 08 04 2A
 8.281286 1  130             Rx   d 1 00
 8.293164 1  70              Rx   d 8 24 00 01 07 00 03 0F EB
 8.296876 1  220             Rx   d 8 00 FF F8 00 00 00 00 48
 8.299434 1  330             Rx   d 4 01 10 01 00
 8.303190 1  627             Rx   d 8 00 00 20 00 00 00 00 00
 8.306453 1  108             Rx   d 7 03 00 0D DD 04 38 31
 8.316337 1  370             Rx   d 4 48 98 18 00
 8.321318 1  621             Rx   d 8 00 40 00 00 00 00 00 00
 8.329149 1  380             Rx   d 6 20 10 00 00 00 00
 8.341652 1  60              Rx   d 3 00 A0 6F
 8.345134 1  135             Rx   d 1 00
 8.352186 1  140             Rx   d 5 00 8A 9D 8D A2
 8.354676 1  535             Rx   d 4 00 07 2A 80
 8.373127 1  400             Rx   d 3 09 00 5C
 8.381107 1  130             Rx   d 1 00
 8.393403 1  70              Rx   d 8 24 00 00 F1 00 0A 0F F3
 8.402607 1  108             Rx   d 7 03 00 0D EA 03 DB 31
 8.404614 1  430             Rx   d 2 04 18
 8.411721 1  60              Rx   d 3 00 A0 70
 8.421356 1  621             Rx   d 8 00 40 00 00 00 00 00 00
 8.445141 1  135             Rx   d 1 00
 8.448382 1  440             Rx   d 5 00 00 00 00 00
 8.452102 1  140             Rx   d 5 00 8A AC 8D B1
 8.454631 1  535             Rx   d 4 00 07 2C 7F
 8.461582 1  60              Rx   d 3 00 A0 71
 8.481044 1  130             Rx   d 1 00
 8.493104 1  70              Rx   d 8 24 00 00 DF 00 02 0F FA
 8.502731 1  108             Rx   d 7 03 00 0E 15 03 96 31
 8.514942 1  390             Rx   d 8 00 E5 3D 00 00 00 00 00
 8.518551 1  450             Rx   d 8 00 00 BA 69 2F 00 00 00
 8.522327 1  621             Rx   d 8 00 40 00 00 00 00 00 00
 8.545155 1  135             Rx   d 1 00
 8.552084 1  140             Rx   d 5 00 8A B9 8D BE
 8.554570 1  535             Rx   d 4 00 07 2F 7E
 8.581049 1  130             Rx   d 1 00
 8.592899 1  70              Rx   d 8 24 00 00 CD 00 06 0F EE
 8.602549 1  108             Rx   d 7 03 00 0E 24 03 51 30
 8.621173 1  621             Rx   d 8 00 40 00 00 00 00 00 00
 8.645173 1  135             Rx   d 1 00
 8.651947 1  140             Rx   d 5 00 8A C6 8D CC
 8.654431 1  535             Rx   d 4 00 07 32 7C
 8.681081 1  130             Rx   d 1 00
 8.692854 1  70              Rx   d 8 24 00 00 BA 00 06 0F EA
 8.702686 1  108             Rx   d 7 03 00 0E 0E 03 07 31
 8.704701 1  300             Rx   d 2 00 10
 8.706707 1  430             Rx   d 2 04 18
 8.709172 1  445             Rx   d 4 00 4E 4E FF
 8.711170 1  490             Rx   d 2 00 0F
 8.717079 1  310             Rx   d 8 18 24 00 42 4C 00 00 20
 8.721067 1  621             Rx   d 8 00 40 00 00 00 00 00 00
 8.745188 1  135             Rx   d 1 00
 8.751996 1  140             Rx   d 5 00 8A D1 8D D6
 8.754512 1  535             Rx   d 4 00 07 35 7C
 8.757725 1  740             Rx   d 6 00 00 00 00 00 00
 8.780997 1  130             Rx   d 1 00
 8.792876 1  70              Rx   d 8 24 00 00 AC 00 06 0F F1
 8.802407 1  108             Rx   d 7 03 00 0E 0E 02 C6 31
 8.821009 1  621             Rx   d 8 00 40 00 00 00 00 00 00
 8.843328 1  211             Rx   d 4 00 00 A8 43
 8.845398 1  135             Rx   d 1 00
 8.852060 1  140             Rx   d 5 00 8A DC 8D E1
 8.854574 1  535             Rx   d 4 00 07 37 7E
 8.871642 1  160             Rx   d 4 10 20 2C 2C
 8.880944 1  130             Rx   d 1 00
 8.889852 1  180             Rx   d 5 00 00 00 00 00
 8.893509 1  70              Rx   d 8 24 00 00 9F 00 01 0F F1
 8.895819 1  183             Rx   d 3 43 FF FF
 8.902389 1  108             Rx   d 7 03 00 0E 1D 02 90 31
 8.904135 1  150             Rx   d 1 00
 8.911394 1  60              Rx   d 3 00 A0 70
 8.920931 1  621             Rx   d 8 00 40 00 00 00 00 00 00
 8.936232 1  460             Rx   d 5 00 42 42 05 23
 8.945239 1  135             Rx   d 1 00
 8.951922 1  140             Rx   d 5 00 8A E5 8D EA
 8.954409 1  535             Rx   d 4 00 07 3A 7F
 8.978834 1  480             Rx   d 2 00 00
 8.980891 1  130             Rx   d 1 00
 8.992689 1  70              Rx   d 8 24 00 00 94 00 03 0F F5
 9.002313 1  108             Rx   d 7 03 00 0E 2E 02 5D 30
 9.020901 1  621             Rx   d 8 00 40 00 00 00 00 00 00
 9.043190 1  220             Rx   d 8 00 FF F8 00 00 00 00 48
 9.045435 1  135             Rx   d 1 00
 9.051829 1  140             Rx   d 5 00 8A EE 8D F4
 9.054374 1  535             Rx   d 4 00 07 3D 80
 9.080765 1  130             Rx   d 1 00
 9.092580 1  70              Rx   d 8 24 00 00 87 00 04 0F F1
 9.102264 1  108             Rx   d 7 03 00 0E 22 02 2F 30
 9.120924 1  621             Rx   d 8 00 40 00 00 00 00 00 00
 9.131293 1  60              Rx   d 3 00 A0 70
 9.133841 1  91              Rx   d 4 00 A0 00 00
 9.145242 1  135             Rx   d 1 00
 9.151844 1  140             Rx   d 5 00 8A F6 8D FC
 9.154361 1  535             Rx   d 4 00 07 40 7C
 9.171540 1  160             Rx   d 4 10 20 2C 2C
 9.173731 1  170             Rx   d 3 00 63 7A
 9.180747 1  130             Rx   d 1 00
 9.192505 1  70              Rx   d 8 24 00 00 7D 00 03 0F EE
 9.202226 1  108             Rx   d 7 03 00 0E 27 02 01 30
 9.220861 1  621             Rx   d 8 00 40 00 00 00 00 00 00
 9.223240 1  60              Rx   d 3 00 A0 71
 9.245263 1  135             Rx   d 1 00
 9.251155 1  320             Rx   d 7 10 00 00 00 01 20 00
 9.253908 1  140             Rx   d 5 00 8A FF 8E 04
 9.256400 1  535             Rx   d 4 00 07 43 78
 9.264534 1  210             Rx   d 8 00 C0 00 06 18 04 00 00
 9.267509 1  520             Rx   d 6 17 01 18 08 04 2B
 9.280584 1  130             Rx   d 1 00
 9.290647 1  90              Rx   d 1 27
 9.294335 1  70              Rx   d 8 24 00 00 74 00 04 0F EE
 9.302170 1  108             Rx   d 7 03 00 0E 27 01 D6 30
 9.320755 1  621             Rx   d 8 00 40 00 00 00 00 00 00
 9.323313 1  330             Rx   d 4 01 10 01 00
 9.345277 1  135             Rx   d 1 00
 9.351596 1  140             Rx   d 5 00 8B 06 8E 0A
 9.354061 1  535             Rx   d 4 00 07 45 79
 9.373147 1  400             Rx   d 3 09 00 5C
 9.380576 1  130             Rx   d 1 00
 9.392373 1  70              Rx   d 8 24 00 00 66 00 05 0F EE
 9.402173 1  108             Rx   d 7 03 00 0E 29 01 B4 30
 9.420614 1  621             Rx   d 8 00 40 00 00 00 00 00 00
 9.445303 1  135             Rx   d 1 00
 9.451478 1  140             Rx   d 5 00 8B 0D 8E 11
 9.454000 1  535             Rx   d 4 00 07 48 7E
 9.480479 1  130             Rx   d 1 00
 9.483390 1  211             Rx   d 4 00 00 A8 43
 9.492538 1  70              Rx   d 8 24 00 00 5E 00 03 0F F3
 9.502018 1  108             Rx   d 7 03 00 0E 3F 01 89 30
 9.514859 1  450             Rx   d 8 00 00 BA 69 2F 00 00 00
 9.520651 1  621             Rx   d 8 00 40 00 00 00 00 00 00
 9.545309 1  135             Rx   d 1 00
 9.550978 1  60              Rx   d 3 00 A0 70
 9.553680 1  140             Rx   d 5 00 8B 12 8E 16
 9.556196 1  535             Rx   d 4 00 07 4A 7F
 9.580424 1  130             Rx   d 1 00
 9.592301 1  70              Rx   d 8 24 00 00 51 00 07 0F EE
 9.601986 1  108             Rx   d 7 03 00 0E 27 01 5B 30
 9.620609 1  621             Rx   d 8 00 40 00 00 00 00 00 00
 9.630919 1  60              Rx   d 3 00 A0 71
 9.645324 1  135             Rx   d 1 00
 9.651354 1  140             Rx   d 5 00 8B 17 8E 1D
 9.653838 1  535             Rx   d 4 00 07 4D 7D
 9.681042 1  60              Rx   d 3 00 A0 70
 9.682780 1  130             Rx   d 1 00
 9.692379 1  70              Rx   d 8 24 00 00 48 00 07 0F EF
 9.702183 1  108             Rx   d 7 03 00 0E 15 01 38 30
 9.704645 1  445             Rx   d 4 00 4E 4E FF
 9.720422 1  621             Rx   d 8 00 40 00 00 00 00 00 00
 9.730824 1  430             Rx   d 2 04 18
 9.746519 1  135             Rx   d 1 00
 9.751313 1  140             Rx   d 5 00 8B 1B 8E 21
 9.753808 1  535             Rx   d 4 00 07 50 80
 9.780492 1  130             Rx   d 1 00
 9.792343 1  70              Rx   d 8 24 00 00 39 00 03 0F EF
 9.801874 1  108             Rx   d 7 03 00 0E 24 01 02 30
 9.820408 1  621             Rx   d 8 00 40 00 00 00 00 00 00
 9.845364 1  135             Rx   d 1 00
 9.851425 1  140             Rx   d 5 00 8B 1F 8E 25
 9.853912 1  535             Rx   d 4 00 07 53 7F
 9.880833 1  60              Rx   d 3 00 A0 71
 9.882571 1  130             Rx   d 1 00
 9.889804 1  180             Rx   d 5 00 00 00 00 00
 9.893487 1  70              Rx   d 8 24 00 00 30 00 02 0F ED
 9.895804 1  183             Rx   d 3 43 FF FF
 9.901922 1  108             Rx   d 7 03 00 0E 18 00 DB 30
 9.903666 1  150             Rx   d 1 00
 9.920403 1  621             Rx   d 8 00 40 00 00 00 00 00 00
 9.930903 1  60              Rx   d 3 00 A0 70
 9.936901 1  460             Rx   d 5 00 42 42 05 23
 9.945406 1  135             Rx   d 1 00
 9.951432 1  140             Rx   d 5 00 8B 23 8E 29
 9.953953 1  535             Rx   d 4 00 07 55 7D
 9.980777 1  60              Rx   d 3 00 A0 71
 9.982489 1  130             Rx   d 1 00
 9.992244 1  70              Rx   d 8 24 00 00 25 00 02 0F EF
 10.001829 1  108             Rx   d 7 03 00 0E 2B 00 A9 30
 10.020242 1  621             Rx   d 8 00 40 00 00 00 00 00 00
 10.042372 1  220             Rx   d 8 00 FF F8 00 00 00 00 48
 10.045386 1  135             Rx   d 1 00
 10.051171 1  140             Rx   d 5 00 8B 26 8E 2A
 10.053668 1  535             Rx   d 4 00 07 58 7C
 10.080314 1  130             Rx   d 1 00
 10.092239 1  70              Rx   d 8 24 00 00 1D 00 02 0F EF
 10.101703 1  108             Rx   d 7 03 00 0E 1D 00 87 30
 10.120205 1  621             Rx   d 8 00 40 00 00 00 00 00 00
 10.122812 1  160             Rx   d 4 10 00 2C 2C
 10.125298 1  211             Rx   d 4 00 00 A8 43
 10.130667 1  60              Rx   d 3 00 A0 71
 10.133231 1  91              Rx   d 4 00 A0 00 00
 10.145414 1  135             Rx   d 1 00
 10.151265 1  140             Rx   d 5 00 8B 27 8E 2D
 10.153735 1  535             Rx   d 4 00 07 5B 7C
 10.170635 1  170             Rx   d 3 00 63 7A
 10.180671 1  60              Rx   d 3 00 A0 70
 10.182412 1  130             Rx   d 1 00
 10.192131 1  70              Rx   d 8 24 00 00 15 00 00 0F EF
 10.201788 1  108             Rx   d 7 03 00 0E 2E 00 68 30
 10.220140 1  621             Rx   d 8 00 40 00 00 00 00 00 00
 10.222776 1  160             Rx   d 4 10 00 2C 2C
 10.230603 1  60              Rx   d 3 00 A0 6F
 10.245426 1  135             Rx   d 1 00
 10.251158 1  140             Rx   d 5 00 8B 29 8E 2E
 10.253639 1  535             Rx   d 4 00 07 5E 7D
 10.264660 1  210             Rx   d 8 00 C0 00 06 18 04 00 00
 10.267689 1  520             Rx   d 6 17 01 18 08 04 2C
 10.275923 1  320             Rx   d 7 10 00 00 00 01 20 00
 10.280081 1  130             Rx   d 1 00
 10.292051 1  70              Rx   d 8 24 00 00 00 00 04 0F EE
 10.301725 1  108             Rx   d 7 03 00 0E 07 00 49 30
 10.320367 1  621             Rx   d 8 00 40 00 00 00 00 00 00
 10.344972 1  330             Rx   d 4 01 10 01 00
 10.346713 1  135             Rx   d 1 00
 10.351012 1  535             Rx   d 4 00 07 60 7C
 10.355596 1  350             Rx   d 5 20 00 00 00 00
 10.373148 1  400             Rx   d 3 09 00 5C
 10.380166 1  130             Rx   d 1 00
 10.390547 1  60              Rx   d 3 00 A0 70
 10.401610 1  108             Rx   d 7 03 00 0D E2 00 00 30
 10.420045 1  621             Rx   d 8 00 40 00 00 00 00 00 00
 10.445433 1  135             Rx   d 1 00
 10.451067 1  535             Rx   d 4 00 07 63 76
 10.480104 1  130             Rx   d 1 00
 10.489131 1  340             Rx   d 6 20 00 0C 00 71 80
 10.498966 1  350             Rx   d 5 20 00 00 00 40
 10.502359 1  108             Rx   d 7 03 00 0E 04 00 00 30
 10.514874 1  450             Rx   d 8 00 00 BA 69 2F 00 00 00
 10.520061 1  621             Rx   d 8 00 40 00 00 00 00 00 00
 10.530769 1  160             Rx   d 4 10 10 2C 2C
 10.545472 1  135             Rx   d 1 00
 10.550442 1  60              Rx   d 3 00 A0 71
 10.552900 1  535             Rx   d 4 00 07 65 76
 10.579953 1  130             Rx   d 1 00
 10.600573 1  60              Rx   d 3 00 A0 70
 10.603931 1  108             Rx   d 7 03 00 0E 13 00 00 30
 10.620066 1  621             Rx   d 8 00 40 00 00 00 00 00 00
 10.645479 1  135             Rx   d 1 00
 10.650397 1  60              Rx   d 3 00 A0 6F
 10.652862 1  535             Rx   d 4 00 07 68 79
 10.680051 1  130             Rx   d 1 00
 10.701686 1  108             Rx   d 7 03 00 0D F6 00 00 30
 10.704150 1  445             Rx   d 4 00 4E 4E FF
 10.719930 1  621             Rx   d 8 00 40 00 00 00 00 00 00
 10.745522 1  135             Rx   d 1 00
 10.750447 1  60              Rx   d 3 00 A0 70
 10.752961 1  535             Rx   d 4 00 07 6A 7A
 10.763609 1  211             Rx   d 4 00 00 A8 43
 10.779898 1  130             Rx   d 1 00
 10.801577 1  108             Rx   d 7 03 00 0E 02 00 00 30
 10.819840 1  621             Rx   d 8 00 40 00 00 00 00 00 00
 10.845551 1  135             Rx   d 1 00
 10.850312 1  60              Rx   d 3 00 A0 6F
 10.852778 1  535             Rx   d 4 00 07 6D 7A
 10.879949 1  130             Rx   d 1 00
 10.889729 1  180             Rx   d 5 00 00 00 00 00
 10.892043 1  183             Rx   d 3 43 FF FF
 10.901403 1  108             Rx   d 7 03 00 0E 11 00 00 30
 10.903532 1  150             Rx   d 1 00
 10.919908 1  621             Rx   d 8 00 40 00 00 00 00 00 00
 10.930130 1  430             Rx   d 2 04 18
 10.936554 1  460             Rx   d 5 00 42 42 05 23
 10.945562 1  135             Rx   d 1 00
 10.950537 1  60              Rx   d 3 00 A0 70
 10.953093 1  535             Rx   d 4 00 07 70 7C
 10.979870 1  130             Rx   d 1 00
 11.001472 1  108             Rx   d 7 03 00 0E 13 00 00 30
 11.019834 1  621             Rx   d 8 00 40 00 00 00 00 00 00
 11.041867 1  220             Rx   d 8 00 FF F8 00 00 00 00 48
 11.045613 1  135             Rx   d 1 00
 11.050599 1  535             Rx   d 4 00 07 73 7E
 11.060356 1  60              Rx   d 3 00 A0 6F
 11.064769 1  625             Rx   d 8 00 10 00 00 00 00 00 00
 11.079694 1  130             Rx   d 1 00
 11.101691 1  108             Rx   d 7 03 00 0E 09 00 00 30
 11.110276 1  60              Rx   d 3 00 A0 70
 11.119759 1  621             Rx   d 8 00 40 00 00 00 00 00 00
 11.130652 1  91              Rx   d 4 00 A0 00 00
 11.145732 1  135             Rx   d 1 00
 11.150590 1  535             Rx   d 4 00 07 75 7B
 11.160289 1  60              Rx   d 3 00 A0 70
 11.171727 1  70              Rx   d 8 24 00 00 00 00 02 0F F0
 11.174426 1  140             Rx   d 5 00 8B 29 8E 2E
 11.176942 1  160             Rx   d 4 10 10 2C 2C
 11.179140 1  170             Rx   d 3 00 63 7A
 11.180943 1  130             Rx   d 1 00
 11.182708 1  190             Rx   d 1 40
 11.184728 1  230             Rx   d 2 00 00
 11.201496 1  108             Rx   d 7 03 00 0E 13 00 00 30
 11.208951 1  62A             Rx   d 8 00 08 00 00 00 00 00 00
 11.219918 1  621             Rx   d 8 00 40 00 00 00 00 00 00
 11.245818 1  135             Rx   d 1 00
 11.250616 1  535             Rx   d 4 00 07 78 77
 11.265069 1  210             Rx   d 8 00 C0 00 06 18 04 00 00
 11.268083 1  520             Rx   d 6 17 01 18 08 04 2D
 11.279720 1  130             Rx   d 1 00
 11.298181 1  627             Rx   d 8 00 00 20 00 00 00 00 00
 11.300465 1  60              Rx   d 3 00 A0 71
 11.303795 1  108             Rx   d 7 03 00 0D EE 00 00 30
 11.307214 1  320             Rx   d 7 10 00 00 00 01 20 00
 11.316647 1  370             Rx   d 4 48 98 18 00
 11.320435 1  621             Rx   d 8 00 40 00 00 00 00 00 00
 11.329399 1  380             Rx   d 6 20 10 00 00 00 00
 11.345942 1  135             Rx   d 1 00
 11.350317 1  60              Rx   d 3 00 A0 70
 11.352804 1  535             Rx   d 4 00 07 7A 79
 11.370651 1  330             Rx   d 4 01 10 01 00
 11.373524 1  400             Rx   d 3 09 00 5C
 11.379795 1  130             Rx   d 1 00
 11.401432 1  108             Rx   d 7 03 00 0E 02 00 00 30
 11.404109 1  211             Rx   d 4 00 00 A8 43
 11.419945 1  621             Rx   d 8 00 40 00 00 00 00 00 00
 11.422807 1  350             Rx   d 5 20 00 00 00 00
 11.446024 1  135             Rx   d 1 00
 11.448962 1  440             Rx   d 5 00 00 00 00 00
 11.451482 1  535             Rx   d 4 00 07 7D 7E
 11.479795 1  130             Rx   d 1 00
 11.501571 1  108             Rx   d 7 03 00 0E 07 00 00 30
 11.515422 1  390             Rx   d 8 00 E5 3D 00 00 00 00 00
 11.519017 1  450             Rx   d 8 00 00 BA 69 2F 00 00 00
 11.522806 1  621             Rx   d 8 00 40 00 00 00 00 00 00
 11.546175 1  135             Rx   d 1 00
 11.550761 1  535             Rx   d 4 00 07 7F 7E
 11.579934 1  130             Rx   d 1 00
 11.601537 1  108             Rx   d 7 03 00 0D F3 00 00 30
 11.620046 1  621             Rx   d 8 00 40 00 00 00 00 00 00
 11.646257 1  135             Rx   d 1 00
 11.650795 1  535             Rx   d 4 00 07 82 7A
 11.679967 1  130             Rx   d 1 00
 11.701878 1  108             Rx   d 7 03 00 0D FB 00 00 30
 11.703976 1  300             Rx   d 2 00 10
 11.706437 1  445             Rx   d 4 00 4E 4E FF
 11.708436 1  490             Rx   d 2 00 0F
 11.718228 1  310             Rx   d 8 18 24 00 42 4C 00 00 20
 11.722000 1  621             Rx   d 8 00 40 00 00 00 00 00 00
 11.746365 1  135             Rx   d 1 00
 11.750964 1  535             Rx   d 4 00 07 85 77
 11.757859 1  740             Rx   d 6 00 00 00 00 00 00
 11.779898 1  130             Rx   d 1 00
 11.801709 1  108             Rx   d 7 03 00 0D F1 00 00 30
 11.810589 1  60              Rx   d 3 00 A0 71
 11.820129 1  621             Rx   d 8 00 40 00 00 00 00 00 00
 11.846473 1  135             Rx   d 1 00
 11.850847 1  535             Rx   d 4 00 07 88 79
 11.880088 1  130             Rx   d 1 00
 11.890534 1  180             Rx   d 5 00 00 00 00 00
 11.892863 1  183             Rx   d 3 43 FF FF
 11.896604 1  220             Rx   d 8 00 00 00 00 00 00 00 48
 11.901555 1  108             Rx   d 7 03 00 0E 15 00 00 30
 11.904139 1  150             Rx   d 1 00
 11.920150 1  621             Rx   d 8 00 40 00 00 00 00 00 00
 11.937599 1  460             Rx   d 5 00 42 42 05 23
 11.940556 1  60              Rx   d 3 00 A0 70
 11.946610 1  135             Rx   d 1 00
 11.950926 1  535             Rx   d 4 00 07 8A 7B
 11.980014 1  130             Rx   d 1 00
 11.982533 1  480             Rx   d 2 00 00
 11.990484 1  60              Rx   d 3 00 A0 71
 11.994208 1  220             Rx   d 8 00 FF F8 00 00 00 00 48
 12.001607 1  108             Rx   d 7 03 00 0E 07 00 00 30
 12.020429 1  621             Rx   d 8 00 40 00 00 00 00 00 00
 12.044724 1  211             Rx   d 4 00 00 A8 43
 12.046881 1  135             Rx   d 1 00
 12.051180 1  535             Rx   d 4 00 07 8D 7B
 12.080563 1  60              Rx   d 3 00 A0 70
 12.082300 1  130             Rx   d 1 00
 12.092029 1  220             Rx   d 8 00 FF F8 00 00 00 00 48
 12.101717 1  108             Rx   d 7 03 00 0D F3 00 00 30
 12.120118 1  621             Rx   d 8 00 40 00 00 00 00 00 00
 12.130608 1  60              Rx   d 3 00 A0 70
 12.132649 1  430             Rx   d 2 04 18
 12.135201 1  91              Rx   d 4 00 A0 00 00
 12.146803 1  135             Rx   d 1 00
 12.151059 1  535             Rx   d 4 00 07 8F 7B
 12.172103 1  70              Rx   d 8 24 00 00 00 00 03 0F EF
 12.174796 1  140             Rx   d 5 00 8B 29 8E 2E
 12.177315 1  160             Rx   d 4 10 10 2C 2C
 12.179516 1  170             Rx   d 3 00 63 7A
 12.181820 1  60              Rx   d 3 00 A0 6F
 12.183572 1  130             Rx   d 1 00
 12.201627 1  108             Rx   d 7 03 00 0D E7 00 00 30
 12.220143 1  621             Rx   d 8 00 40 00 00 00 00 00 00
 12.242109 1  220             Rx   d 8 00 00 00 00 00 00 00 48
 12.246891 1  135             Rx   d 1 00
 12.251093 1  535             Rx   d 4 00 07 91 7B
 12.266106 1  210             Rx   d 8 00 C0 00 06 18 04 00 00
 12.269076 1  520             Rx   d 6 17 01 18 08 04 2E
 12.271429 1  60              Rx   d 3 00 A0 70
 12.280157 1  130             Rx   d 1 00
 12.289036 1  90              Rx   d 1 27
 12.301742 1  108             Rx   d 7 03 00 0D D6 00 00 30
 12.320179 1  621             Rx   d 8 00 40 00 00 00 00 00 00
 12.326702 1  320             Rx   d 7 10 00 00 00 01 20 00
 12.342240 1  220             Rx   d 8 00 FF F8 00 00 00 00 48
 12.347028 1  135             Rx   d 1 00
 12.351038 1  535             Rx   d 4 00 07 94 7C
 12.374471 1  400             Rx   d 3 09 00 5C
 12.380257 1  130             Rx   d 1 00
 12.396871 1  330             Rx   d 4 01 10 01 00
 12.401788 1  108             Rx   d 7 03 00 0D FF 00 00 30
 12.420295 1  621             Rx   d 8 00 40 00 00 00 00 00 00
 12.422632 1  60              Rx   d 3 00 A0 71
 12.442151 1  220             Rx   d 8 00 FF F8 00 00 00 00 48
 12.447100 1  135             Rx   d 1 00
 12.451219 1  535             Rx   d 4 00 07 97 7C
 12.480267 1  130             Rx   d 1 00
 12.501884 1  108             Rx   d 7 03 00 0E 15 00 00 30
 12.516211 1  450             Rx   d 8 00 00 BA 69 2F 00 00 00
 12.520290 1  621             Rx   d 8 00 40 00 00 00 00 00 00
 12.547198 1  135             Rx   d 1 00
 12.551170 1  535             Rx   d 4 00 07 99 7B
 12.580158 1  130             Rx   d 1 00
 12.601814 1  108             Rx   d 7 03 00 0E 07 00 00 30
 12.620235 1  621             Rx   d 8 00 40 00 00 00 00 00 00
 12.647325 1  135             Rx   d 1 00
 12.651111 1  535             Rx   d 4 00 07 9C 79
 12.680191 1  130             Rx   d 1 00
 12.683917 1  220             Rx   d 8 00 FF F8 00 00 00 00 48
 12.686406 1  211             Rx   d 4 00 00 A8 43
 12.701899 1  108             Rx   d 7 03 00 0D F8 00 00 30
 12.705415 1  445             Rx   d 4 00 4E 4E FF
 12.720300 1  621             Rx   d 8 00 40 00 00 00 00 00 00
 12.747416 1  135             Rx   d 1 00
 12.750842 1  60              Rx   d 3 00 A0 70
 12.753362 1  535             Rx   d 4 00 07 9F 79
 12.780218 1  130             Rx   d 1 00
 12.783941 1  220             Rx   d 8 00 FF F8 00 00 00 00 48
 12.801895 1  108             Rx   d 7 03 00 0D F8 00 00 30
 12.820379 1  621             Rx   d 8 00 40 00 00 00 00 00 00
 12.822797 1  60              Rx   d 3 00 A0 6F
 12.847526 1  135             Rx   d 1 00
 12.851191 1  535             Rx   d 4 00 07 A1 7A
 12.880327 1  130             Rx   d 1 00
 12.884047 1  220             Rx   d 8 00 FF F8 00 00 00 00 48
 12.891356 1  180             Rx   d 5 00 00 00 00 00
 12.893668 1  183             Rx   d 3 43 FF FF
 12.900961 1  60              Rx   d 3 00 A0 70
 12.904238 1  108             Rx   d 7 03 00 0D E2 00 00 30
 12.905973 1  150             Rx   d 1 00
 12.920386 1  621             Rx   d 8 00 40 00 00 00 00 00 00
 12.938616 1  460             Rx   d 5 00 42 42 05 23
 12.947623 1  135             Rx   d 1 00
 12.951233 1  535             Rx   d 4 00 07 A4 7C
 12.980278 1  130             Rx   d 1 00
 13.001896 1  108             Rx   d 7 03 00 0D DB 00 00 31
 13.020402 1  621             Rx   d 8 00 40 00 00 00 00 00 00
 13.030883 1  60              Rx   d 3 00 A0 71
 13.034589 1  220             Rx   d 8 00 00 00 00 00 00 00 48
 13.047719 1  135             Rx   d 1 00
 13.051259 1  535             Rx   d 4 00 07 A6 7B
 13.080426 1  130             Rx   d 1 00
 13.101928 1  108             Rx   d 7 03 00 0D FF 00 00 30
 13.120418 1  621             Rx   d 8 00 40 00 00 00 00 00 00
 13.130852 1  60              Rx   d 3 00 A0 71
 13.134575 1  220             Rx   d 8 00 FF F8 00 00 00 00 48
 13.137124 1  91              Rx   d 4 00 A0 00 00
 13.147789 1  135             Rx   d 1 00
 13.151212 1  535             Rx   d 4 00 07 A9 7B
 13.172249 1  70              Rx   d 8 24 00 00 00 00 02 0F EE
 13.174946 1  140             Rx   d 5 00 8B 29 8E 2E
 13.177473 1  160             Rx   d 4 10 10 2C 2C
 13.179659 1  170             Rx   d 3 00 63 7A
 13.181427 1  130             Rx   d 1 00
 13.201984 1  108             Rx   d 7 03 00 0D FD 00 00 30
 13.220549 1  621             Rx   d 8 00 40 00 00 00 00 00 00
 13.232431 1  220             Rx   d 8 00 FF F8 00 00 00 00 48
 13.247896 1  135             Rx   d 1 00
 13.251350 1  535             Rx   d 4 00 07 AB 79
 13.267116 1  210             Rx   d 8 00 C0 00 06 18 04 00 00
 13.270121 1  520             Rx   d 6 17 01 18 08 04 2F
 13.280327 1  130             Rx   d 1 00
 13.301938 1  108             Rx   d 7 03 00 0D FB 00 00 30
 13.320775 1  621             Rx   d 8 00 40 00 00 00 00 00 00
 13.326026 1  211             Rx   d 4 00 00 A8 43
 13.330734 1  430             Rx   d 2 04 18
 13.348003 1  135             Rx   d 1 00
 13.351272 1  535             Rx   d 4 00 07 AE 7A
 13.354696 1  320             Rx   d 7 10 00 00 00 01 20 00
 13.375331 1  400             Rx   d 3 09 00 5C
 13.380988 1  60              Rx   d 3 00 A0 70
 13.382684 1  130             Rx   d 1 00
 13.402195 1  108             Rx   d 7 03 00 0E 0C 00 00 30
 13.405950 1  220             Rx   d 8 00 00 00 00 00 00 00 48
 13.420425 1  621             Rx   d 8 00 40 00 00 00 00 00 00
 13.423094 1  330             Rx   d 4 01 10 01 00
 13.429442 1  350             Rx   d 5 20 00 00 00 00
 13.448092 1  135             Rx   d 1 00
 13.451298 1  535             Rx   d 4 00 07 B0 7A
 13.480381 1  130             Rx   d 1 00
 13.502020 1  108             Rx   d 7 03 00 0D E0 00 00 30
 13.505737 1  220             Rx   d 8 00 FF F8 00 00 00 00 48
 13.517123 1  450             Rx   d 8 00 00 BA 69 2F 00 00 00
 13.520911 1  621             Rx   d 8 00 40 00 00 00 00 00 00
 13.548202 1  135             Rx   d 1 00
 13.551289 1  535             Rx   d 4 00 07 B3 7C
 13.565837 1  340             Rx   d 6 20 00 0C 00 71 80
 13.580452 1  130             Rx   d 1 00
 13.602090 1  108             Rx   d 7 03 00 0D FB 00 00 30
 13.605818 1  220             Rx   d 8 00 FF F8 00 00 00 00 48
 13.620644 1  621             Rx   d 8 00 40 00 00 00 00 00 00
 13.648295 1  135             Rx   d 1 00
 13.651440 1  535             Rx   d 4 00 07 B5 7D
 13.680521 1  130             Rx   d 1 00
 13.702041 1  108             Rx   d 7 03 00 0D F1 00 00 30
 13.706376 1  445             Rx   d 4 00 4E 4E FF
 13.720504 1  621             Rx   d 8 00 40 00 00 00 00 00 00
 13.732507 1  220             Rx   d 8 00 00 00 00 00 00 00 48
 13.741511 1  60              Rx   d 3 00 A0 71
 13.748384 1  135             Rx   d 1 00
 13.751355 1  535             Rx   d 4 00 07 B8 7C
 13.780560 1  130             Rx   d 1 00
 13.802169 1  108             Rx   d 7 03 00 0D EE 00 00 30
 13.820627 1  621             Rx   d 8 00 40 00 00 00 00 00 00
 13.832686 1  220             Rx   d 8 00 FF F8 00 00 00 00 48
 13.848481 1  135             Rx   d 1 00
 13.851540 1  535             Rx   d 4 00 07 BB 7A
 13.880474 1  130             Rx   d 1 00
 13.892094 1  180             Rx   d 5 00 00 00 00 00
 13.894408 1  183             Rx   d 3 43 FF FF
 13.902156 1  108             Rx   d 7 03 00 0D F6 00 00 30
 13.905820 1  150             Rx   d 1 00
 13.920625 1  621             Rx   d 8 00 40 00 00 00 00 00 00
 13.939571 1  460             Rx   d 5 00 42 42 05 23
 13.948575 1  135             Rx   d 1 00
 13.951484 1  535             Rx   d 4 00 07 BD 79
 13.962538 1  220             Rx   d 8 00 00 00 00 00 00 00 48
 13.966587 1  211             Rx   d 4 00 00 A8 43
 13.980608 1  130             Rx   d 1 00
 14.001079 1  60              Rx   d 3 00 A0 70
 14.004402 1  108             Rx   d 7 03 00 0E 15 00 00 30
 14.020608 1  621             Rx   d 8 00 40 00 00 00 00 00 00
 14.042279 1  690             Rx   d 8 53 33 46 48 37 31 55 34
 14.045751 1  700             Rx   d 8 36 36 31 30 34 37 36 32
 14.048675 1  135             Rx   d 1 00
 14.051646 1  535             Rx   d 4 00 07 C0 79
 14.062664 1  220             Rx   d 8 00 FF F8 00 00 00 00 48
 14.067371 1  625             Rx   d 8 00 10 00 00 00 00 00 00
 14.081059 1  60              Rx   d 3 00 A0 6F
 14.082798 1  130             Rx   d 1 00
 14.102178 1  108             Rx   d 7 03 00 0D F8 00 00 30
 14.120645 1  621             Rx   d 8 00 40 00 00 00 00 00 00
 14.131062 1  60              Rx   d 3 00 A0 70
 14.133609 1  91              Rx   d 4 00 A0 00 00
 14.148774 1  135             Rx   d 1 00
 14.151496 1  535             Rx   d 4 00 07 C2 7C
 14.162790 1  220             Rx   d 8 00 00 00 00 00 00 00 48
 14.172572 1  70              Rx   d 8 24 00 00 00 00 04 0F EE
 14.175266 1  140             Rx   d 5 00 8B 29 8E 2E
 14.177792 1  160             Rx   d 4 10 10 2C 2C
 14.179990 1  170             Rx   d 3 00 63 7A
 14.181722 1  130             Rx   d 1 00
 14.183494 1  190             Rx   d 1 40
 14.185515 1  230             Rx   d 2 00 00
 14.202346 1  108             Rx   d 7 03 00 0D F3 00 00 30
 14.220630 1  621             Rx   d 8 00 40 00 00 00 00 00 00
 14.248852 1  135             Rx   d 1 00
 14.251550 1  535             Rx   d 4 00 07 C5 7D
 14.262651 1  220             Rx   d 8 00 FF F8 00 00 00 00 48
 14.268032 1  210             Rx   d 8 00 C0 00 06 18 04 00 00
 14.271039 1  520             Rx   d 6 17 01 18 08 04 30
 14.280612 1  130             Rx   d 1 00
 14.286052 1  62A             Rx   d 8 00 08 00 00 00 00 00 00
 14.301195 1  627             Rx   d 8 00 00 20 00 00 00 00 00
 14.304555 1  108             Rx   d 7 03 00 0D D8 00 00 31
 14.319210 1  370             Rx   d 4 48 98 18 00
 14.322991 1  621             Rx   d 8 00 40 00 00 00 00 00 00
 14.331825 1  380             Rx   d 6 20 10 00 00 00 00
 14.348940 1  135             Rx   d 1 00
 14.351278 1  60              Rx   d 3 00 A0 71
 14.353831 1  535             Rx   d 4 00 07 C7 7B
 14.376110 1  400             Rx   d 3 09 00 5C
 14.379538 1  320             Rx   d 7 10 00 00 00 01 20 00
 14.381280 1  130             Rx   d 1 00
 14.386838 1  532             Rx   d 3 46 00 00
 14.402147 1  108             Rx   d 7 03 00 0D F3 00 00 31
 14.420997 1  621             Rx   d 8 00 40 00 00 00 00 00 00
 14.423446 1  60              Rx   d 3 00 A0 70
 14.449100 1  330             Rx   d 4 01 10 01 00
 14.450897 1  135             Rx   d 1 00
 14.453782 1  440             Rx   d 5 00 00 00 00 00
 14.456303 1  535             Rx   d 4 00 07 CA 79
 14.472670 1  220             Rx   d 8 00 00 00 00 00 00 00 48
 14.480737 1  130             Rx   d 1 00
 14.502378 1  108             Rx   d 7 03 00 0E 0C 00 00 30
 14.517966 1  390             Rx   d 8 00 E5 3D 00 00 00 00 00
 14.521569 1  450             Rx   d 8 00 00 BA 69 2F 00 00 00
 14.525348 1  621             Rx   d 8 00 40 00 00 00 00 00 00
 14.531113 1  430             Rx   d 2 04 18
 14.549136 1  135             Rx   d 1 00
 14.551648 1  535             Rx   d 4 00 07 CA 79
 14.561198 1  60              Rx   d 3 00 A0 71
 14.572633 1  220             Rx   d 8 00 FF F8 00 00 00 00 48
 14.580585 1  130             Rx   d 1 00
 14.602252 1  108             Rx   d 7 03 00 0E 04 00 00 30
 14.607173 1  211             Rx   d 4 00 00 A8 43
 14.620686 1  621             Rx   d 8 00 40 00 00 00 00 00 00
 14.641300 1  60              Rx   d 3 00 A0 70
 14.649220 1  135             Rx   d 1 00
 14.651750 1  535             Rx   d 4 00 07 CC 79
 14.672848 1  220             Rx   d 8 00 00 00 00 00 00 00 48
 14.680649 1  130             Rx   d 1 00
 14.701178 1  60              Rx   d 3 00 A0 6F
 14.704500 1  108             Rx   d 7 03 00 0E 02 00 00 30
 14.706879 1  300             Rx   d 2 00 10
 14.709343 1  445             Rx   d 4 00 4E 4E FF
 14.711327 1  490             Rx   d 2 00 0F
 14.720759 1  621             Rx   d 8 00 40 00 00 00 00 00 00
 14.724399 1  310             Rx   d 8 18 24 00 42 4C 00 00 20
 14.749321 1  135             Rx   d 1 00
 14.751801 1  535             Rx   d 4 00 07 CF 7B
 14.760836 1  740             Rx   d 6 00 00 00 00 00 00
 14.763156 1  60              Rx   d 3 00 A0 70
 14.772792 1  220             Rx   d 8 00 FF F8 00 00 00 00 48
 14.780716 1  130             Rx   d 1 00
 14.802263 1  108             Rx   d 7 03 00 0D DB 00 00 30
 14.820750 1  621             Rx   d 8 00 40 00 00 00 00 00 00
 14.849425 1  135             Rx   d 1 00
 14.851939 1  535             Rx   d 4 00 07 D1 7C
 14.872800 1  220             Rx   d 8 00 FF F8 00 00 00 00 48
 14.880871 1  130             Rx   d 1 00
 14.892833 1  180             Rx   d 5 00 00 00 00 00
 14.895136 1  183             Rx   d 3 43 FF FF
 14.902405 1  108             Rx   d 7 03 00 0D F3 00 00 30
 14.906609 1  150             Rx   d 1 00
 14.920872 1  621             Rx   d 8 00 40 00 00 00 00 00 00
 14.940584 1  460             Rx   d 5 00 42 42 05 23
 14.949496 1  135             Rx   d 1 00
 14.952005 1  535             Rx   d 4 00 07 D4 7C
 14.972838 1  220             Rx   d 8 00 FF F8 00 00 00 00 48
 14.980754 1  130             Rx   d 1 00
 14.987694 1  480             Rx   d 2 00 00
 14.991623 1  60              Rx   d 3 00 A0 70
 15.002276 1  108             Rx   d 7 03 00 0D FB 00 00 30
 15.020901 1  621             Rx   d 8 00 40 00 00 00 00 00 00
 15.049583 1  135             Rx   d 1 00
 15.051869 1  60              Rx   d 3 00 A0 71
 15.054410 1  535             Rx   d 4 00 07 D7 7C
 15.072715 1  220             Rx   d 8 00 FF F8 00 00 00 00 48
 15.080700 1  130             Rx   d 1 00
 15.102304 1  108             Rx   d 7 03 00 0E 09 00 00 30
 15.120908 1  621             Rx   d 8 00 40 00 00 00 00 00 00
 15.131254 1  60              Rx   d 3 00 A0 71
 15.133796 1  91              Rx   d 4 00 A0 00 00
 15.149686 1  135             Rx   d 1 00
 15.152224 1  535             Rx   d 4 00 07 D9 7C
 15.172665 1  70              Rx   d 8 24 00 00 00 00 03 0F EF
 15.175368 1  140             Rx   d 5 00 8B 29 8E 2E
 15.177892 1  160             Rx   d 4 10 10 2C 2C
 15.180079 1  170             Rx   d 3 00 63 7A
 15.181820 1  130             Rx   d 1 00
 15.185613 1  220             Rx   d 8 00 00 00 00 00 00 00 48
 15.202356 1  108             Rx   d 7 03 00 0E 1D 00 00 30
 15.220834 1  621             Rx   d 8 00 40 00 00 00 00 00 00
 15.247765 1  211             Rx   d 4 00 00 A8 43
 15.249990 1  135             Rx   d 1 00
 15.252542 1  535             Rx   d 4 00 07 DC 7C
 15.268944 1  210             Rx   d 8 00 C0 00 06 18 04 00 00
 15.271912 1  520             Rx   d 6 17 01 18 08 04 31
 15.280928 1  130             Rx   d 1 00
 15.284611 1  220             Rx   d 8 00 FF F8 00 00 00 00 48
 15.288623 1  90              Rx   d 1 27
 15.301360 1  60              Rx   d 3 00 A0 70
 15.304682 1  108             Rx   d 7 03 00 0D EE 00 00 30
 15.320925 1  621             Rx   d 8 00 40 00 00 00 00 00 00
 15.349896 1  135             Rx   d 1 00
 15.352202 1  60              Rx   d 3 00 A0 6F
 15.354719 1  535             Rx   d 4 00 07 DF 7A
 15.376887 1  400             Rx   d 3 09 00 5C
 15.380751 1  130             Rx   d 1 00
 15.384499 1  220             Rx   d 8 00 00 00 00 00 00 00 48
 15.402472 1  108             Rx   d 7 03 00 0D FB 00 00 30
 15.405908 1  320             Rx   d 7 10 00 00 00 01 20 00
 15.420910 1  621             Rx   d 8 00 40 00 00 00 00 00 00
 15.449975 1  135             Rx   d 1 00
 15.452466 1  535             Rx   d 4 00 07 E1 79
 15.475250 1  330             Rx   d 4 01 10 01 00
 15.481349 1  60              Rx   d 3 00 A0 70
 15.483108 1  130             Rx   d 1 00
 15.486868 1  220             Rx   d 8 00 00 00 00 00 00 00 48
 15.502708 1  108             Rx   d 7 03 00 0D D6 00 00 31
 15.518596 1  450             Rx   d 8 00 00 BA 69 2F 00 00 00
 15.522380 1  621             Rx   d 8 00 40 00 00 00 00 00 00
 15.550046 1  135             Rx   d 1 00
 15.552531 1  535             Rx   d 4 00 07 E4 7A
 15.580899 1  130             Rx   d 1 00
 15.584642 1  220             Rx   d 8 00 00 00 00 00 00 00 48
 15.602422 1  108             Rx   d 7 03 00 0D F8 00 00 30
 15.620992 1  621             Rx   d 8 00 40 00 00 00 00 00 00
 15.623839 1  350             Rx   d 5 20 00 00 00 40
 15.626111 1  60              Rx   d 3 00 A0 71
 15.650126 1  135             Rx   d 1 00
 15.652621 1  535             Rx   d 4 00 07 E6 7B
 15.671317 1  60              Rx   d 3 00 A0 70
 15.680789 1  130             Rx   d 1 00
 15.684490 1  220             Rx   d 8 00 FF F8 00 00 00 00 48
 15.702591 1  108             Rx   d 7 03 00 0E 13 00 00 30
 15.708144 1  445             Rx   d 4 00 4E 4E FF
 15.720963 1  621             Rx   d 8 00 40 00 00 00 00 00 00
 15.731167 1  430             Rx   d 2 04 18
 15.750210 1  135             Rx   d 1 00
 15.752693 1  535             Rx   d 4 00 07 E9 7B
 15.780927 1  130             Rx   d 1 00
 15.784625 1  220             Rx   d 8 00 FF F8 00 00 00 00 48
 15.802418 1  108             Rx   d 7 03 00 0D FF 00 00 30
 15.820900 1  621             Rx   d 8 00 40 00 00 00 00 00 00
 15.850305 1  135             Rx   d 1 00
 15.852788 1  535             Rx   d 4 00 07 EB 7B
 15.880945 1  130             Rx   d 1 00
 15.884666 1  220             Rx   d 8 00 FF F8 00 00 00 00 48
 15.888298 1  211             Rx   d 4 00 00 A8 43
 15.893527 1  180             Rx   d 5 00 00 00 00 00
 15.895839 1  183             Rx   d 3 43 FF FF
 15.902476 1  108             Rx   d 7 03 00 0D FD 00 00 30
 15.907347 1  150             Rx   d 1 00
 15.921000 1  621             Rx   d 8 00 40 00 00 00 00 00 00
 15.941406 1  460             Rx   d 5 00 42 42 05 23
 15.950417 1  135             Rx   d 1 00
 15.952932 1  535             Rx   d 4 00 07 EE 7B
 15.981412 1  60              Rx   d 3 00 A0 6F
 15.983188 1  130             Rx   d 1 00
 15.986910 1  220             Rx   d 8 00 FF F8 00 00 00 00 48
 16.002487 1  108             Rx   d 7 03 00 0D FF 00 00 30
 16.021001 1  621             Rx   d 8 00 40 00 00 00 00 00 00
 16.031412 1  60              Rx   d 3 00 A0 70
 16.050504 1  135             Rx   d 1 00
 16.052988 1  535             Rx   d 4 00 07 F1 7B
 16.080996 1  130             Rx   d 1 00
 16.084739 1  220             Rx   d 8 00 00 00 00 00 00 00 48
 16.102507 1  108             Rx   d 7 03 00 0D FD 00 00 30
 16.120988 1  621             Rx   d 8 00 40 00 00 00 00 00 00
 16.131552 1  60              Rx   d 3 00 A0 70
 16.134097 1  91              Rx   d 4 00 A0 00 00
 16.150557 1  135             Rx   d 1 00
 16.153110 1  535             Rx   d 4 00 07 F3 7C
 16.172939 1  70              Rx   d 8 24 00 00 00 00 03 0F EE
 16.175640 1  140             Rx   d 5 00 8B 29 8E 2E
 16.178158 1  160             Rx   d 4 10 10 2C 2C
 16.180350 1  170             Rx   d 3 00 63 7A
 16.182089 1  130             Rx   d 1 00
 16.185817 1  220             Rx   d 8 00 FF F8 00 00 00 00 48
 16.202504 1  108             Rx   d 7 03 00 0D F3 00 00 30
 16.221076 1  621             Rx   d 8 00 40 00 00 00 00 00 00
 16.250629 1  135             Rx   d 1 00
 16.253146 1  535             Rx   d 4 00 07 F6 7B
 16.269767 1  210             Rx   d 8 00 C0 00 06 18 04 00 00
 16.272731 1  520             Rx   d 6 17 01 18 08 04 32
 16.280932 1  130             Rx   d 1 00
 16.284640 1  220             Rx   d 8 00 FF F8 00 00 00 00 48
 16.302620 1  108             Rx   d 7 03 00 0D F3 00 00 30
 16.321074 1  621             Rx   d 8 00 40 00 00 00 00 00 00
 16.350703 1  135             Rx   d 1 00
 16.353222 1  535             Rx   d 4 00 07 F8 7B
 16.377583 1  400             Rx   d 3 09 00 5C
 16.380939 1  130             Rx   d 1 00
 16.384656 1  220             Rx   d 8 00 FF F8 00 00 00 00 48
 16.402488 1  108             Rx   d 7 03 00 0D EE 00 00 30
 16.420962 1  621             Rx   d 8 00 40 00 00 00 00 00 00
 16.428901 1  320             Rx   d 7 10 00 00 00 01 20 00
 16.450789 1  135             Rx   d 1 00
 16.453338 1  535             Rx   d 4 00 07 FB 7B
 16.480977 1  130             Rx   d 1 00
 16.484694 1  220             Rx   d 8 00 FF F8 00 00 00 00 48
 16.501176 1  330             Rx   d 4 01 10 01 00
 16.504526 1  108             Rx   d 7 03 00 0D FF 00 00 30
 16.507384 1  350             Rx   d 5 20 00 00 00 40
 16.519250 1  450             Rx   d 8 00 00 BA 69 2F 00 00 00
 16.523036 1  621             Rx   d 8 00 40 00 00 00 00 00 00
 16.528840 1  211             Rx   d 4 00 00 A8 43
 16.550901 1  135             Rx   d 1 00
 16.553426 1  535             Rx   d 4 00 07 FE 7B
 16.581422 1  60              Rx   d 3 00 A0 6F
 16.583213 1  130             Rx   d 1 00
 16.586939 1  220             Rx   d 8 00 FF F8 00 00 00 00 48
 16.602540 1  108             Rx   d 7 03 00 0D FD 00 00 30
 16.605935 1  350             Rx   d 5 20 00 00 00 00
 16.620947 1  621             Rx   d 8 00 40 00 00 00 00 00 00
 16.642579 1  340             Rx   d 6 20 00 0C 00 71 80
 16.651907 1  535             Rx   d 4 00 08 00 79
 16.653647 1  135             Rx   d 1 00
 16.671541 1  60              Rx   d 3 00 A0 70
 16.680935 1  130             Rx   d 1 00
 16.684623 1  220             Rx   d 8 00 FF F8 00 00 00 00 48
 16.702536 1  108             Rx   d 7 03 00 0D D6 00 00 30
 16.708963 1  445             Rx   d 4 00 4E 4E FF
 16.721066 1  621             Rx   d 8 00 40 00 00 00 00 00 00
 16.751790 1  535             Rx   d 4 00 08 03 7A
 16.753546 1  135             Rx   d 1 00
 16.780958 1  130             Rx   d 1 00
 16.784647 1  220             Rx   d 8 00 00 00 00 00 00 00 48
 16.802531 1  108             Rx   d 7 03 00 0D E0 00 00 31
 16.820992 1  621             Rx   d 8 00 40 00 00 00 00 00 00
 16.851789 1  535             Rx   d 4 00 08 06 7A
 16.853550 1  135             Rx   d 1 00
 16.881021 1  130             Rx   d 1 00
 16.884737 1  220             Rx   d 8 00 FF F8 00 00 00 00 48
 16.894167 1  180             Rx   d 5 00 00 00 00 00
 16.896479 1  183             Rx   d 3 43 FF FF
 16.902638 1  108             Rx   d 7 03 00 0D EA 00 00 30
 16.908047 1  150             Rx   d 1 00
 16.921041 1  621             Rx   d 8 00 40 00 00 00 00 00 00
 16.923379 1  60              Rx   d 3 00 A0 71
 16.931434 1  430             Rx   d 2 04 18
 16.942367 1  460             Rx   d 5 00 42 42 05 23
 16.951818 1  535             Rx   d 4 00 08 08 7B
 16.953557 1  135             Rx   d 1 00
 16.981022 1  130             Rx   d 1 00
 16.984741 1  220             Rx   d 8 00 FF F8 00 00 00 00 48
 17.002623 1  108             Rx   d 7 03 00 0D FD 00 00 30
 17.021021 1  621             Rx   d 8 00 40 00 00 00 00 00 00
 17.051858 1  535             Rx   d 4 00 08 0B 7B
 17.053601 1  135             Rx   d 1 00
 17.069542 1  625             Rx   d 8 00 10 00 00 00 00 00 00
 17.081021 1  130             Rx   d 1 00
 17.084730 1  220             Rx   d 8 00 FF F8 00 00 00 00 48
 17.102731 1  108             Rx   d 7 03 00 0E 04 00 00 30
 17.121008 1  621             Rx   d 8 00 40 00 00 00 00 00 00
 17.131597 1  60              Rx   d 3 00 A0 71
 17.134158 1  91              Rx   d 4 00 A0 00 00
 17.151830 1  535             Rx   d 4 00 08 0D 7B
 17.153563 1  135             Rx   d 1 00
 17.169300 1  211             Rx   d 4 00 00 A8 43
 17.172991 1  70              Rx   d 8 24 00 00 00 00 07 0F ED
 17.175720 1  140             Rx   d 5 00 8B 29 8E 2E
 17.178243 1  160             Rx   d 4 10 10 2C 2C
 17.180431 1  170             Rx   d 3 00 63 7A
 17.182174 1  130             Rx   d 1 00
 17.183945 1  190             Rx   d 1 40
 17.187733 1  220             Rx   d 8 00 FF F8 00 00 00 00 48
 17.189745 1  230             Rx   d 2 00 00
 17.202594 1  108             Rx   d 7 03 00 0D F6 00 00 30
 17.221072 1  621             Rx   d 8 00 40 00 00 00 00 00 00
 17.223471 1  60              Rx   d 3 00 A0 70
 17.251920 1  535             Rx   d 4 00 08 10 7B
 17.253660 1  135             Rx   d 1 00
 17.270572 1  210             Rx   d 8 00 C0 00 06 18 04 00 00
 17.273601 1  520             Rx   d 6 17 01 18 08 04 33
 17.281677 1  60              Rx   d 3 00 A0 6F
 17.283420 1  130             Rx   d 1 00
 17.287165 1  220             Rx   d 8 00 FF F8 00 00 00 00 48
 17.302716 1  108             Rx   d 7 03 00 0D CA 00 00 31
 17.306470 1  627             Rx   d 8 00 00 20 00 00 00 00 00
 17.321119 1  621             Rx   d 8 00 40 00 00 00 00 00 00
 17.323612 1  370             Rx   d 4 48 98 18 00
 17.333848 1  380             Rx   d 6 20 10 00 00 00 00
 17.351823 1  535             Rx   d 4 00 08 12 7B
 17.353560 1  135             Rx   d 1 00
 17.362709 1  62A             Rx   d 8 00 08 00 00 00 00 00 00
 17.378276 1  400             Rx   d 3 09 00 5C
 17.380972 1  130             Rx   d 1 00
 17.384728 1  220             Rx   d 8 00 00 00 00 00 00 00 48
 17.402481 1  108             Rx   d 7 03 00 0D DB 00 00 30
 17.421054 1  621             Rx   d 8 00 40 00 00 00 00 00 00
 17.423468 1  60              Rx   d 3 00 A0 70
 17.452255 1  535             Rx   d 4 00 08 15 7B
 17.453987 1  135             Rx   d 1 00
 17.457416 1  320             Rx   d 7 10 00 00 00 01 20 00
 17.460368 1  440             Rx   d 5 00 00 00 00 00
 17.471535 1  60              Rx   d 3 00 A0 71
 17.481016 1  130             Rx   d 1 00
 17.484737 1  220             Rx   d 8 00 FF F8 00 00 00 00 48
 17.502589 1  108             Rx   d 7 03 00 0D F1 00 00 30
 17.520010 1  390             Rx   d 8 00 E5 3D 00 00 00 00 00
 17.523612 1  450             Rx   d 8 00 00 BA 69 2F 00 00 00
 17.527398 1  621             Rx   d 8 00 40 00 00 00 00 00 00
 17.529949 1  330             Rx   d 4 01 10 01 00
 17.532296 1  60              Rx   d 3 00 A0 70
 17.551899 1  535             Rx   d 4 00 08 17 7A
 17.553630 1  135             Rx   d 1 00
 17.581544 1  60              Rx   d 3 00 A0 71
 17.583333 1  130             Rx   d 1 00
 17.587098 1  220             Rx   d 8 00 00 00 00 00 00 00 48
 17.602668 1  108             Rx   d 7 03 00 0D FB 00 00 30
 17.621124 1  621             Rx   d 8 00 40 00 00 00 00 00 00
 17.651845 1  535             Rx   d 4 00 08 1A 7B
 17.653579 1  135             Rx   d 1 00
 17.681132 1  130             Rx   d 1 00
 17.684874 1  220             Rx   d 8 00 00 00 00 00 00 00 48
 17.702677 1  108             Rx   d 7 03 00 0D F3 00 00 30
 17.709301 1  300             Rx   d 2 00 10
 17.711743 1  445             Rx   d 4 00 4E 4E FF
 17.713724 1  490             Rx   d 2 00 0F
 17.721060 1  621             Rx   d 8 00 40 00 00 00 00 00 00
 17.724689 1  310             Rx   d 8 18 24 00 42 4C 00 00 20
 17.752008 1  535             Rx   d 4 00 08 1D 7B
 17.753738 1  135             Rx   d 1 00
 17.763349 1  740             Rx   d 6 00 00 00 00 00 00
 17.781212 1  130             Rx   d 1 00
 17.784924 1  220             Rx   d 8 00 FF F8 00 00 00 00 48
 17.802574 1  108             Rx   d 7 03 00 0D E7 00 00 31
 17.809810 1  211             Rx   d 4 00 00 A8 43
 17.821133 1  621             Rx   d 8 00 40 00 00 00 00 00 00
 17.851568 1  60              Rx   d 3 00 A0 70
 17.853279 1  135             Rx   d 1 00
 17.855768 1  535             Rx   d 4 00 08 1F 7B
 17.881002 1  130             Rx   d 1 00
 17.894742 1  180             Rx   d 5 00 00 00 00 00
 17.897048 1  183             Rx   d 3 43 FF FF
 17.902570 1  108             Rx   d 7 03 00 0D EC 00 00 30
 17.908670 1  150             Rx   d 1 00
 17.913138 1  220             Rx   d 8 00 00 00 00 00 00 00 48
 17.921157 1  621             Rx   d 8 00 40 00 00 00 00 00 00
 17.943008 1  460             Rx   d 5 00 42 42 05 23
 17.951980 1  535             Rx   d 4 00 08 22 7B
 17.953751 1  135             Rx   d 1 00
 17.981136 1  130             Rx   d 1 00
 17.992449 1  480             Rx   d 2 00 00
 18.002651 1  108             Rx   d 7 03 00 0D DD 00 00 30
 18.013232 1  220             Rx   d 8 00 FF F8 00 00 00 00 48
 18.021048 1  621             Rx   d 8 00 40 00 00 00 00 00 00
 18.051855 1  535             Rx   d 4 00 08 24 7B
 18.053589 1  135             Rx   d 1 00
 18.080970 1  130             Rx   d 1 00
 18.102563 1  108             Rx   d 7 03 00 0D E5 00 00 30
 18.113088 1  220             Rx   d 8 00 FF F8 00 00 00 00 48
 18.121081 1  621             Rx   d 8 00 40 00 00 00 00 00 00
 18.131757 1  60              Rx   d 3 00 A0 70
 18.133768 1  430             Rx   d 2 04 18
 18.136399 1  91              Rx   d 4 00 A0 00 00
 18.151923 1  535             Rx   d 4 00 08 27 7A
 18.153659 1  135             Rx   d 1 00
 18.172997 1  70              Rx   d 8 24 00 00 00 00 00 0F F0
 18.175683 1  140             Rx   d 5 00 8B 29 8E 2E
 18.178233 1  160             Rx   d 4 10 10 2C 2C
 18.180401 1  170             Rx   d 3 00 63 7A
 18.182137 1  130             Rx   d 1 00
 18.202738 1  108             Rx   d 7 03 00 0D F3 00 00 30
 18.221154 1  621             Rx   d 8 00 40 00 00 00 00 00 00
 18.223484 1  60              Rx   d 3 00 A0 71
 18.251938 1  535             Rx   d 4 00 08 29 7A
 18.253690 1  135             Rx   d 1 00
 18.263094 1  220             Rx   d 8 00 00 00 00 00 00 00 48
 18.271296 1  210             Rx   d 8 00 C0 00 06 18 04 00 00
 18.274330 1  520             Rx   d 6 17 01 18 08 04 34
 18.281124 1  130             Rx   d 1 00
 18.287739 1  90              Rx   d 1 27
 18.302722 1  108             Rx   d 7 03 00 0D FD 00 00 30
 18.321232 1  621             Rx   d 8 00 40 00 00 00 00 00 00
 18.351836 1  535             Rx   d 4 00 08 2C 7B
 18.354109 1  135             Rx   d 1 00
 18.363183 1  220             Rx   d 8 00 FF F8 00 00 00 00 48
 18.378876 1  400             Rx   d 3 09 00 5C
 18.381012 1  130             Rx   d 1 00
 18.402679 1  108             Rx   d 7 03 00 0D FB 00 00 30
 18.421063 1  621             Rx   d 8 00 40 00 00 00 00 00 00
 18.450288 1  211             Rx   d 4 00 00 A8 43
 18.452772 1  535             Rx   d 4 00 08 2E 7C
 18.454509 1  135             Rx   d 1 00
 18.479731 1  320             Rx   d 7 10 00 00 00 01 20 00
 18.481460 1  130             Rx   d 1 00
 18.502688 1  108             Rx   d 7 03 00 0D FF 00 00 30
 18.511567 1  60              Rx   d 3 00 A0 70
 18.520504 1  450             Rx   d 8 00 00 BA 69 2F 00 00 00
 18.524298 1  621             Rx   d 8 00 40 00 00 00 00 00 00
 18.533140 1  220             Rx   d 8 00 00 00 00 00 00 00 48
 18.551927 1  535             Rx   d 4 00 08 31 7C
 18.553663 1  135             Rx   d 1 00
 18.556221 1  330             Rx   d 4 01 10 01 00
 18.581107 1  130             Rx   d 1 00
 18.602649 1  108             Rx   d 7 03 00 0D F1 00 00 30
 18.621069 1  621             Rx   d 8 00 40 00 00 00 00 00 00
 18.651910 1  535             Rx   d 4 00 08 33 7B
 18.653974 1  135             Rx   d 1 00
 18.681080 1  130             Rx   d 1 00
 18.702652 1  108             Rx   d 7 03 00 0D F1 00 00 30
 18.710491 1  445             Rx   d 4 00 4E 4E FF
 18.712764 1  60              Rx   d 3 00 A0 71
 18.721081 1  621             Rx   d 8 00 40 00 00 00 00 00 00
 18.751901 1  535             Rx   d 4 00 08 36 7A
 18.753630 1  135             Rx   d 1 00
 18.781127 1  130             Rx   d 1 00
 18.802610 1  108             Rx   d 7 03 00 0D FF 00 00 30
 18.811579 1  60              Rx   d 3 00 A0 70
 18.821147 1  621             Rx   d 8 00 40 00 00 00 00 00 00
 18.851873 1  535             Rx   d 4 00 08 38 7A
 18.853608 1  135             Rx   d 1 00
 18.881490 1  60              Rx   d 3 00 A0 71
 18.883217 1  130             Rx   d 1 00
 18.895308 1  180             Rx   d 5 00 00 00 00 00
 18.897606 1  183             Rx   d 3 43 FF FF
 18.902747 1  108             Rx   d 7 03 00 0D F3 00 00 30
 18.909287 1  150             Rx   d 1 00
 18.921062 1  621             Rx   d 8 00 40 00 00 00 00 00 00
 18.924803 1  220             Rx   d 8 00 00 08 00 00 00 00 48
